Debug: 6 3 log.c:236 handle_log_output_command(): set log_output to "file.log"
Debug: 7 3 options.c:233 add_default_dirs(): bindir=/opt/riscv-openocd/bin
Debug: 8 3 options.c:234 add_default_dirs(): pkgdatadir=/opt/riscv-openocd/share/openocd
Debug: 9 3 options.c:235 add_default_dirs(): exepath=/opt/riscv-openocd/bin
Debug: 10 3 options.c:236 add_default_dirs(): bin2data=../share/openocd
Debug: 11 3 configuration.c:33 add_script_search_dir(): adding /home/binhkieudo/.config/openocd
Debug: 12 3 configuration.c:33 add_script_search_dir(): adding /home/binhkieudo/.openocd
Debug: 13 3 configuration.c:33 add_script_search_dir(): adding /opt/riscv-openocd/bin/../share/openocd/site
Debug: 14 3 configuration.c:33 add_script_search_dir(): adding /opt/riscv-openocd/bin/../share/openocd/scripts
Debug: 15 3 command.c:155 script_debug(): command - ocd_find olimex-arm-usb-tiny-h.cfg
Debug: 16 3 configuration.c:88 find_file(): found olimex-arm-usb-tiny-h.cfg
Debug: 17 3 command.c:155 script_debug(): command - adapter speed 1000
Debug: 18 3 adapter.c:247 adapter_config_khz(): handle adapter khz
Debug: 19 3 adapter.c:211 adapter_khz_to_speed(): convert khz to adapter specific speed value
Debug: 20 3 adapter.c:211 adapter_khz_to_speed(): convert khz to adapter specific speed value
Debug: 21 3 command.c:155 script_debug(): command - adapter driver ftdi
Debug: 22 3 command.c:155 script_debug(): command - ftdi device_desc Olimex OpenOCD JTAG ARM-USB-TINY-H
Debug: 23 3 command.c:155 script_debug(): command - ftdi vid_pid 0x15ba 0x002a
Debug: 24 3 command.c:155 script_debug(): command - ftdi layout_init 0x0808 0x0a1b
Debug: 25 3 command.c:155 script_debug(): command - ftdi layout_signal nSRST -oe 0x0200
Debug: 26 3 command.c:155 script_debug(): command - ftdi layout_signal nTRST -data 0x0100 -oe 0x0100
Debug: 27 3 command.c:155 script_debug(): command - ftdi layout_signal LED -data 0x0800
Debug: 28 3 command.c:155 script_debug(): command - transport select jtag
Debug: 29 4 command.c:155 script_debug(): command - jtag newtap serv cpu -irlen 5
Debug: 30 4 tcl.c:557 jim_newtap_cmd(): Creating New Tap, Chip: serv, Tap: cpu, Dotted: serv.cpu, 2 params
Debug: 31 4 tcl.c:582 jim_newtap_cmd(): Processing option: -irlen
Debug: 32 4 core.c:1474 jtag_tap_init(): Created Tap: serv.cpu @ abs position 0, irlen 5, capture: 0x1 mask: 0x3
Debug: 33 4 command.c:155 script_debug(): command - target create serv.cpu.0 riscv -chain-position serv.cpu
Debug: 34 4 target.c:2203 target_free_all_working_areas_restore(): freeing all working areas
Debug: 35 4 riscv.c:401 riscv_create_target(): [serv.cpu.0] riscv_create_target()
Debug: 36 4 command.c:155 script_debug(): command - riscv set_mem_access progbuf
Debug: 37 4 command.c:155 script_debug(): command - serv.cpu.0 configure -work-area-phys 0x80000000 -work-area-size 256 -work-area-backup 1
Debug: 38 4 target.c:2203 target_free_all_working_areas_restore(): freeing all working areas
Debug: 39 4 target.c:2203 target_free_all_working_areas_restore(): freeing all working areas
Debug: 40 4 target.c:2203 target_free_all_working_areas_restore(): freeing all working areas
Debug: 41 4 command.c:155 script_debug(): command - riscv expose_csrs 4032=mxisa
Debug: 42 4 command.c:155 script_debug(): command - init
Debug: 43 4 command.c:155 script_debug(): command - target init
Debug: 44 4 command.c:155 script_debug(): command - target names
Debug: 45 4 command.c:155 script_debug(): command - serv.cpu.0 cget -event gdb-flash-erase-start
Debug: 46 4 command.c:155 script_debug(): command - serv.cpu.0 configure -event gdb-flash-erase-start reset init
Debug: 47 4 command.c:155 script_debug(): command - serv.cpu.0 cget -event gdb-flash-write-end
Debug: 48 4 command.c:155 script_debug(): command - serv.cpu.0 configure -event gdb-flash-write-end reset halt
Debug: 49 4 command.c:155 script_debug(): command - serv.cpu.0 cget -event gdb-attach
Debug: 50 4 command.c:155 script_debug(): command - serv.cpu.0 configure -event gdb-attach halt 1000
Debug: 51 4 target.c:1661 handle_target_init_command(): Initializing targets...
Debug: 52 4 riscv.c:414 riscv_init_target(): [serv.cpu.0] riscv_init_target()
Debug: 53 4 semihosting_common.c:109 semihosting_common_init():  
Debug: 54 4 ftdi.c:731 ftdi_initialize(): ftdi interface using shortest path jtag state transitions
Debug: 55 16 mpsse.c:412 mpsse_purge(): -
Debug: 56 16 mpsse.c:693 mpsse_loopback_config(): off
Debug: 57 16 mpsse.c:738 mpsse_set_frequency(): target 1000000 Hz
Debug: 58 16 mpsse.c:730 mpsse_rtck_config(): off
Debug: 59 16 mpsse.c:719 mpsse_divide_by_5_config(): off
Debug: 60 16 mpsse.c:699 mpsse_set_divisor(): 29
Debug: 61 16 mpsse.c:762 mpsse_set_frequency(): actually 1000000 Hz
Debug: 62 16 adapter.c:211 adapter_khz_to_speed(): convert khz to adapter specific speed value
Debug: 63 16 adapter.c:215 adapter_khz_to_speed(): have adapter set up
Debug: 64 16 mpsse.c:738 mpsse_set_frequency(): target 1000000 Hz
Debug: 65 16 mpsse.c:730 mpsse_rtck_config(): off
Debug: 66 16 mpsse.c:719 mpsse_divide_by_5_config(): off
Debug: 67 16 mpsse.c:699 mpsse_set_divisor(): 29
Debug: 68 16 mpsse.c:762 mpsse_set_frequency(): actually 1000000 Hz
Debug: 69 16 adapter.c:211 adapter_khz_to_speed(): convert khz to adapter specific speed value
Debug: 70 16 adapter.c:215 adapter_khz_to_speed(): have adapter set up
Info : 71 16 adapter.c:175 adapter_init(): clock speed 1000 kHz
Debug: 72 16 openocd.c:134 handle_init_command(): Debug Adapter init complete
Debug: 73 16 command.c:155 script_debug(): command - transport init
Debug: 74 16 transport.c:219 handle_transport_init(): handle_transport_init
Debug: 75 16 core.c:830 jtag_add_reset(): SRST line released
Debug: 76 16 core.c:855 jtag_add_reset(): TRST line released
Debug: 77 16 core.c:328 jtag_call_event_callbacks(): jtag event: TAP reset
Debug: 78 16 command.c:155 script_debug(): command - jtag arp_init
Debug: 79 16 core.c:1509 jtag_init_inner(): Init JTAG chain
Debug: 80 16 core.c:328 jtag_call_event_callbacks(): jtag event: TAP reset
Debug: 81 17 core.c:1234 jtag_examine_chain(): DR scan interrogation for IDCODE/BYPASS
Debug: 82 17 core.c:328 jtag_call_event_callbacks(): jtag event: TAP reset
Info : 83 17 core.c:1133 jtag_examine_chain_display(): JTAG tap: serv.cpu tap/device found: 0x10001e1b (mfg: 0x70d (UEC1 - Pham Laboratory), part: 0x0001, ver: 0x1)
Debug: 84 17 core.c:1364 jtag_validate_ircapture(): IR capture validation scan
Debug: 85 17 core.c:1421 jtag_validate_ircapture(): serv.cpu: IR capture 0x01
Debug: 86 17 command.c:155 script_debug(): command - dap init
Debug: 87 17 arm_dap.c:97 dap_init_all(): Initializing all DAPs ...
Debug: 88 17 openocd.c:151 handle_init_command(): Examining targets...
Debug: 89 17 target.c:1847 target_call_event_callbacks(): target event 19 (examine-start) for core serv.cpu.0
Debug: 90 17 riscv.c:1501 riscv_examine(): [serv.cpu.0] Starting examination
Debug: 91 18 riscv.c:374 dtmcontrol_scan(): DTMCONTROL: 0x0 -> 0x61
Debug: 92 18 riscv.c:1511 riscv_examine(): [serv.cpu.0] dtmcontrol=0x61
Debug: 93 18 riscv.c:1513 riscv_examine(): [serv.cpu.0] version=0x1
Debug: 94 18 riscv-013.c:2566 init_target(): [serv.cpu.0] Init.
Debug: 95 18 riscv-013.c:451 dtmcontrol_scan(): DTMCS: 0x0 -> 0x61
Debug: 96 18 riscv-013.c:1698 examine(): [serv.cpu.0] dtmcontrol=0x61
Debug: 97 18 riscv-013.c:1699 examine(): [serv.cpu.0]   dmireset=0
Debug: 98 18 riscv-013.c:1700 examine(): [serv.cpu.0]   idle=0
Debug: 99 18 riscv-013.c:1701 examine(): [serv.cpu.0]   dmistat=0
Debug: 100 18 riscv-013.c:1702 examine(): [serv.cpu.0]   abits=6
Debug: 101 18 riscv-013.c:1703 examine(): [serv.cpu.0]   version=1
Debug: 102 18 riscv-013.c:250 get_dm(): [serv.cpu.0] Coreid [0] Allocating new DM
Debug: 103 18 riscv-013.c:491 dmi_scan(): [serv.cpu.0] reset_delays_wait done
Debug: 104 18 riscv-013.c:397 scan(): 40b w 00000000 @10 -> + 00000000 @00; 0i
Debug: 105 18 riscv-013.c:397 scan(): 40b - 00000000 @10 -> + 00000000 @10; 0i
Debug: 106 18 riscv-013.c:397 scan(): 40b w 00000001 @10 -> + 00000000 @10; 0i
Debug: 107 18 riscv-013.c:407 scan():  dmactive -> 
Debug: 108 18 riscv-013.c:397 scan(): 40b - 00000000 @10 -> + 00000000 @10; 0i
Debug: 109 18 riscv-013.c:4831 riscv013_invalidate_cached_debug_buffer(): [serv.cpu.0] Invalidating progbuf cache
Debug: 110 18 riscv-013.c:397 scan(): 40b w 07ffffc1 @10 -> + 00000000 @10; 0i
Debug: 111 18 riscv-013.c:407 scan():  hasel hartselhi=1023 hartsello=1023 dmactive -> 
Debug: 112 19 riscv-013.c:397 scan(): 40b - 00000000 @10 -> + 00000000 @10; 0i
Debug: 113 19 riscv-013.c:397 scan(): 40b r 00000000 @10 -> + 00000000 @10; 0i
Debug: 114 19 riscv-013.c:397 scan(): 40b - 00000000 @10 -> + 00000001 @10; 0i
Debug: 115 19 riscv-013.c:407 scan():  ->  dmactive
Debug: 116 19 riscv-013.c:397 scan(): 40b w 00000001 @10 -> + 00000001 @10; 0i
Debug: 117 19 riscv-013.c:407 scan():  dmactive ->  dmactive
Debug: 118 19 riscv-013.c:397 scan(): 40b - 00000000 @10 -> + 00000001 @10; 0i
Debug: 119 19 riscv-013.c:407 scan():  ->  dmactive
Debug: 120 19 riscv-013.c:397 scan(): 40b r 00000000 @11 -> + 00000001 @10; 0i
Debug: 121 19 riscv-013.c:407 scan():  ->  dmactive
Debug: 122 19 riscv-013.c:397 scan(): 40b - 00000000 @11 -> + 00400c83 @11; 0i
Debug: 123 19 riscv-013.c:407 scan():  ->  impebreak allrunning anyrunning authenticated version=3
Debug: 124 19 riscv-013.c:1756 examine(): [serv.cpu.0] dmstatus:  0x00400c83
Debug: 125 19 riscv-013.c:1772 examine(): [serv.cpu.0] hartsellen=0
Debug: 126 19 riscv-013.c:397 scan(): 40b r 00000000 @12 -> + 00400c83 @11; 0i
Debug: 127 19 riscv-013.c:407 scan():  ->  impebreak allrunning anyrunning authenticated version=3
Debug: 128 20 riscv-013.c:397 scan(): 40b - 00000000 @12 -> + 00111880 @12; 0i
Debug: 129 20 riscv-013.c:397 scan(): 40b r 00000000 @38 -> + 00111880 @12; 0i
Debug: 130 20 riscv-013.c:397 scan(): 40b - 00000000 @38 -> + 00000000 @38; 0i
Debug: 131 20 riscv-013.c:397 scan(): 40b r 00000000 @16 -> + 00000000 @38; 0i
Debug: 132 20 riscv-013.c:397 scan(): 40b - 00000000 @16 -> + 02000801 @16; 0i
Debug: 133 20 riscv-013.c:407 scan():  ->  progbufsize=2 datacount=1
Info : 134 20 riscv-013.c:1799 examine(): [serv.cpu.0] datacount=1 progbufsize=2
Debug: 135 20 riscv-013.c:397 scan(): 40b r 00000000 @11 -> + 02000801 @16; 0i
Debug: 136 20 riscv-013.c:407 scan():  ->  progbufsize=2 datacount=1
Debug: 137 20 riscv-013.c:397 scan(): 40b - 00000000 @11 -> + 00400c83 @11; 0i
Debug: 138 20 riscv-013.c:407 scan():  ->  impebreak allrunning anyrunning authenticated version=3
Debug: 139 20 riscv-013.c:1837 examine(): [serv.cpu.0] Detected 1 harts.
Debug: 140 20 riscv-013.c:397 scan(): 40b r 00000000 @11 -> + 00400c83 @11; 0i
Debug: 141 20 riscv-013.c:407 scan():  ->  impebreak allrunning anyrunning authenticated version=3
Debug: 142 20 riscv-013.c:397 scan(): 40b - 00000000 @11 -> + 00400c83 @11; 0i
Debug: 143 20 riscv-013.c:407 scan():  ->  impebreak allrunning anyrunning authenticated version=3
Debug: 144 20 riscv-013.c:4668 riscv013_halt_go(): [serv.cpu.0] halting hart
Debug: 145 20 riscv-013.c:397 scan(): 40b w 80000001 @10 -> + 00400c83 @11; 0i
Debug: 146 20 riscv-013.c:407 scan(): haltreq dmactive ->  impebreak allrunning anyrunning authenticated version=3
Debug: 147 21 riscv-013.c:397 scan(): 40b - 00000000 @10 -> + 00400c83 @10; 0i
Debug: 148 21 riscv-013.c:407 scan():  ->  hartselhi=50 hartsello=64 ndmreset dmactive
Debug: 149 21 riscv-013.c:397 scan(): 40b r 00000000 @11 -> + 00400c83 @10; 0i
Debug: 150 21 riscv-013.c:407 scan():  ->  hartselhi=50 hartsello=64 ndmreset dmactive
Debug: 151 21 riscv-013.c:397 scan(): 40b - 00000000 @11 -> + 00400383 @11; 0i
Debug: 152 21 riscv-013.c:407 scan():  ->  impebreak allhalted anyhalted authenticated version=3
Debug: 153 21 riscv-013.c:397 scan(): 40b w 00000001 @10 -> + 00400383 @11; 0i
Debug: 154 21 riscv-013.c:407 scan():  dmactive ->  impebreak allhalted anyhalted authenticated version=3
Debug: 155 21 riscv-013.c:397 scan(): 40b - 00000000 @10 -> + 00400383 @10; 0i
Debug: 156 21 riscv-013.c:407 scan():  ->  hartselhi=14 hartsello=64 ndmreset dmactive
Debug: 157 21 riscv-013.c:783 execute_abstract_command(): [serv.cpu.0] command=0x321008; access register, size=64, postexec=0, transfer=1, write=0, regno=0x1008
Debug: 158 21 riscv-013.c:397 scan(): 40b w 00321008 @17 -> + 00400383 @10; 0i
Debug: 159 21 riscv-013.c:407 scan():  ->  hartselhi=14 hartsello=64 ndmreset dmactive
Debug: 160 21 riscv-013.c:397 scan(): 40b r 00000000 @16 -> + 00400383 @17; 0i
Debug: 161 21 riscv-013.c:397 scan(): 40b - 00000000 @16 -> + 02000a01 @16; 0i
Debug: 162 21 riscv-013.c:407 scan():  ->  progbufsize=2 cmderr=2 datacount=1
Debug: 163 21 riscv-013.c:806 execute_abstract_command(): [serv.cpu.0] command 0x321008 failed; abstractcs=0x2000a01
Debug: 164 21 riscv-013.c:397 scan(): 40b w 00000700 @16 -> + 02000a01 @16; 0i
Debug: 165 21 riscv-013.c:407 scan():  cmderr=7 ->  progbufsize=2 cmderr=2 datacount=1
Debug: 166 22 riscv-013.c:397 scan(): 40b - 00000000 @16 -> + 02000a01 @16; 0i
Debug: 167 22 riscv-013.c:407 scan():  ->  progbufsize=2 cmderr=2 datacount=1
Debug: 168 22 riscv-013.c:783 execute_abstract_command(): [serv.cpu.0] command=0x221008; access register, size=32, postexec=0, transfer=1, write=0, regno=0x1008
Debug: 169 22 riscv-013.c:397 scan(): 40b w 00221008 @17 -> + 02000a01 @16; 0i
Debug: 170 22 riscv-013.c:407 scan():  ->  progbufsize=2 cmderr=2 datacount=1
Debug: 171 22 riscv-013.c:397 scan(): 40b r 00000000 @16 -> + 02000a01 @17; 0i
Debug: 172 22 riscv-013.c:407 scan():  ->  cmdtype=2
Debug: 173 22 riscv-013.c:397 scan(): 40b - 00000000 @16 -> + 02000801 @16; 0i
Debug: 174 22 riscv-013.c:407 scan():  ->  progbufsize=2 datacount=1
Debug: 175 22 riscv-013.c:397 scan(): 40b r 00000000 @04 -> + 02000801 @16; 0i
Debug: 176 22 riscv-013.c:407 scan():  ->  progbufsize=2 datacount=1
Debug: 177 22 riscv-013.c:397 scan(): 40b - 00000000 @04 -> + 40000010 @04; 0i
Debug: 178 22 riscv-013.c:783 execute_abstract_command(): [serv.cpu.0] command=0x221009; access register, size=32, postexec=0, transfer=1, write=0, regno=0x1009
Debug: 179 22 riscv-013.c:397 scan(): 40b w 00221009 @17 -> + 40000010 @04; 0i
Debug: 180 22 riscv-013.c:397 scan(): 40b r 00000000 @16 -> + 40000010 @17; 0i
Debug: 181 22 riscv-013.c:407 scan():  ->  cmdtype=64
Debug: 182 22 riscv-013.c:397 scan(): 40b - 00000000 @16 -> + 02000801 @16; 0i
Debug: 183 22 riscv-013.c:407 scan():  ->  progbufsize=2 datacount=1
Debug: 184 23 riscv-013.c:397 scan(): 40b r 00000000 @04 -> + 02000801 @16; 0i
Debug: 185 23 riscv-013.c:407 scan():  ->  progbufsize=2 datacount=1
Debug: 186 23 riscv-013.c:397 scan(): 40b - 00000000 @04 -> + 00000000 @04; 0i
Debug: 187 23 riscv-013.c:1525 register_read_direct(): [serv.cpu.0] Reading misa
Debug: 188 23 riscv-013.c:783 execute_abstract_command(): [serv.cpu.0] command=0x220301; access register, size=32, postexec=0, transfer=1, write=0, regno=0x301
Debug: 189 23 riscv-013.c:397 scan(): 40b w 00220301 @17 -> + 00000000 @04; 0i
Debug: 190 23 riscv-013.c:397 scan(): 40b r 00000000 @16 -> + 00000000 @17; 0i
Debug: 191 23 riscv-013.c:397 scan(): 40b - 00000000 @16 -> + 02000a01 @16; 0i
Debug: 192 23 riscv-013.c:407 scan():  ->  progbufsize=2 cmderr=2 datacount=1
Debug: 193 23 riscv-013.c:806 execute_abstract_command(): [serv.cpu.0] command 0x220301 failed; abstractcs=0x2000a01
Debug: 194 23 riscv-013.c:397 scan(): 40b w 00000700 @16 -> + 02000a01 @16; 0i
Debug: 195 23 riscv-013.c:407 scan():  cmderr=7 ->  progbufsize=2 cmderr=2 datacount=1
Debug: 196 23 riscv-013.c:397 scan(): 40b - 00000000 @16 -> + 02000a01 @16; 0i
Debug: 197 23 riscv-013.c:407 scan():  ->  progbufsize=2 cmderr=2 datacount=1
Info : 198 23 riscv-013.c:924 register_read_abstract_with_size(): [serv.cpu.0] Disabling abstract command reads from CSRs.
Debug: 199 23 program.c:35 riscv_program_write(): [serv.cpu.0] debug_buffer[00] = DASM(0x30102473)
Debug: 200 23 riscv-013.c:397 scan(): 40b w 30102473 @20 -> + 02000a01 @16; 0i
Debug: 201 23 riscv-013.c:407 scan():  ->  progbufsize=2 cmderr=2 datacount=1
Debug: 202 24 riscv-013.c:397 scan(): 40b - 00000000 @20 -> + 02000a01 @20; 0i
Debug: 203 24 program.c:35 riscv_program_write(): [serv.cpu.0] debug_buffer[01] = DASM(0x00100073)
Debug: 204 24 riscv-013.c:397 scan(): 40b w 00100073 @21 -> + 02000a01 @20; 0i
Debug: 205 24 riscv-013.c:397 scan(): 40b - 00000000 @21 -> + 02000a01 @21; 0i
Debug: 206 24 riscv-013.c:783 execute_abstract_command(): [serv.cpu.0] command=0x241000; access register, size=32, postexec=1, transfer=0, write=0, regno=0x1000
Debug: 207 24 riscv-013.c:397 scan(): 40b w 00241000 @17 -> + 02000a01 @21; 0i
Debug: 208 24 riscv-013.c:397 scan(): 40b r 00000000 @16 -> + 02000a01 @17; 0i
Debug: 209 24 riscv-013.c:407 scan():  ->  cmdtype=2
Debug: 210 24 riscv-013.c:397 scan(): 40b - 00000000 @16 -> + 02000801 @16; 0i
Debug: 211 24 riscv-013.c:407 scan():  ->  progbufsize=2 datacount=1
Debug: 212 24 riscv-013.c:783 execute_abstract_command(): [serv.cpu.0] command=0x221008; access register, size=32, postexec=0, transfer=1, write=0, regno=0x1008
Debug: 213 24 riscv-013.c:397 scan(): 40b w 00221008 @17 -> + 02000801 @16; 0i
Debug: 214 24 riscv-013.c:407 scan():  ->  progbufsize=2 datacount=1
Debug: 215 24 riscv-013.c:397 scan(): 40b r 00000000 @16 -> + 02000801 @17; 0i
Debug: 216 24 riscv-013.c:407 scan():  ->  cmdtype=2
Debug: 217 24 riscv-013.c:397 scan(): 40b - 00000000 @16 -> + 02000801 @16; 0i
Debug: 218 24 riscv-013.c:407 scan():  ->  progbufsize=2 datacount=1
Debug: 219 25 riscv-013.c:397 scan(): 40b r 00000000 @04 -> + 02000801 @16; 0i
Debug: 220 25 riscv-013.c:407 scan():  ->  progbufsize=2 datacount=1
Debug: 221 25 riscv-013.c:397 scan(): 40b - 00000000 @04 -> + 40000010 @04; 0i
Debug: 222 25 riscv-013.c:1544 register_read_direct(): [serv.cpu.0] misa = 0x40000010
Debug: 223 25 riscv-013.c:1525 register_read_direct(): [serv.cpu.0] Reading csr3106
Debug: 224 25 riscv-013.c:1104 prep_for_register_access(): [serv.cpu.0] Preparing mstatus to access csr3106
Debug: 225 25 riscv.c:4807 riscv_get_register(): [serv.cpu.0] No cache, reading mstatus from target
Debug: 226 25 riscv-013.c:4513 riscv013_get_register(): [serv.cpu.0] reading register mstatus
Debug: 227 25 riscv-013.c:1525 register_read_direct(): [serv.cpu.0] Reading mstatus
Debug: 228 25 program.c:35 riscv_program_write(): [serv.cpu.0] debug_buffer[00] = DASM(0x30002473)
Debug: 229 25 riscv-013.c:397 scan(): 40b w 30002473 @20 -> + 40000010 @04; 0i
Debug: 230 25 riscv-013.c:397 scan(): 40b - 00000000 @20 -> + 40000010 @20; 0i
Debug: 231 25 program.c:35 riscv_program_write(): [serv.cpu.0] debug_buffer[01] = DASM(0x00100073)
Debug: 232 25 riscv-013.c:4811 riscv013_write_debug_buffer(): [serv.cpu.0] Cache hit for 0x100073 @1
Debug: 233 25 riscv-013.c:783 execute_abstract_command(): [serv.cpu.0] command=0x241000; access register, size=32, postexec=1, transfer=0, write=0, regno=0x1000
Debug: 234 25 riscv-013.c:397 scan(): 40b w 00241000 @17 -> + 40000010 @20; 0i
Debug: 235 25 riscv-013.c:397 scan(): 40b r 00000000 @16 -> + 40000010 @17; 0i
Debug: 236 25 riscv-013.c:407 scan():  ->  cmdtype=64
Debug: 237 25 riscv-013.c:397 scan(): 40b - 00000000 @16 -> + 02000801 @16; 0i
Debug: 238 25 riscv-013.c:407 scan():  ->  progbufsize=2 datacount=1
Debug: 239 25 riscv-013.c:783 execute_abstract_command(): [serv.cpu.0] command=0x221008; access register, size=32, postexec=0, transfer=1, write=0, regno=0x1008
Debug: 240 25 riscv-013.c:397 scan(): 40b w 00221008 @17 -> + 02000801 @16; 0i
Debug: 241 25 riscv-013.c:407 scan():  ->  progbufsize=2 datacount=1
Debug: 242 25 riscv-013.c:397 scan(): 40b r 00000000 @16 -> + 02000801 @17; 0i
Debug: 243 26 riscv-013.c:407 scan():  ->  cmdtype=2
Debug: 244 26 riscv-013.c:397 scan(): 40b - 00000000 @16 -> + 02000801 @16; 0i
Debug: 245 26 riscv-013.c:407 scan():  ->  progbufsize=2 datacount=1
Debug: 246 26 riscv-013.c:397 scan(): 40b r 00000000 @04 -> + 02000801 @16; 0i
Debug: 247 26 riscv-013.c:407 scan():  ->  progbufsize=2 datacount=1
Debug: 248 26 riscv-013.c:397 scan(): 40b - 00000000 @04 -> + 00000000 @04; 0i
Debug: 249 26 riscv-013.c:1544 register_read_direct(): [serv.cpu.0] mstatus = 0x0
Debug: 250 26 riscv.c:4722 riscv_set_or_write_register(): [serv.cpu.0] No cache, writing to target: mstatus <- 0x200
Debug: 251 26 riscv-013.c:4542 riscv013_set_register(): [serv.cpu.0] writing 0x200 to register mstatus
Debug: 252 26 riscv-013.c:1496 register_write_direct(): [serv.cpu.0] Writing 0x200 to mstatus
Debug: 253 26 riscv-013.c:397 scan(): 40b w 00000200 @04 -> + 00000000 @04; 0i
Debug: 254 26 riscv-013.c:397 scan(): 40b - 00000000 @04 -> + 00000000 @04; 0i
Debug: 255 26 riscv-013.c:783 execute_abstract_command(): [serv.cpu.0] command=0x230300; access register, size=32, postexec=0, transfer=1, write=1, regno=0x300
Debug: 256 26 riscv-013.c:397 scan(): 40b w 00230300 @17 -> + 00000000 @04; 0i
Debug: 257 26 riscv-013.c:397 scan(): 40b r 00000000 @16 -> + 00000000 @17; 0i
Debug: 258 26 riscv-013.c:397 scan(): 40b - 00000000 @16 -> + 02000a01 @16; 0i
Debug: 259 26 riscv-013.c:407 scan():  ->  progbufsize=2 cmderr=2 datacount=1
Debug: 260 26 riscv-013.c:806 execute_abstract_command(): [serv.cpu.0] command 0x230300 failed; abstractcs=0x2000a01
Debug: 261 27 riscv-013.c:397 scan(): 40b w 00000700 @16 -> + 02000a01 @16; 0i
Debug: 262 27 riscv-013.c:407 scan():  cmderr=7 ->  progbufsize=2 cmderr=2 datacount=1
Debug: 263 27 riscv-013.c:397 scan(): 40b - 00000000 @16 -> + 02000a01 @16; 0i
Debug: 264 27 riscv-013.c:407 scan():  ->  progbufsize=2 cmderr=2 datacount=1
Info : 265 27 riscv-013.c:972 register_write_abstract(): [serv.cpu.0] Disabling abstract command writes to CSRs.
Debug: 266 27 riscv-013.c:397 scan(): 40b w 00000200 @04 -> + 02000a01 @16; 0i
Debug: 267 27 riscv-013.c:407 scan():  ->  progbufsize=2 cmderr=2 datacount=1
Debug: 268 27 riscv-013.c:397 scan(): 40b - 00000000 @04 -> + 02000a01 @04; 0i
Debug: 269 27 riscv-013.c:783 execute_abstract_command(): [serv.cpu.0] command=0x231008; access register, size=32, postexec=0, transfer=1, write=1, regno=0x1008
Debug: 270 27 riscv-013.c:397 scan(): 40b w 00231008 @17 -> + 02000a01 @04; 0i
Debug: 271 27 riscv-013.c:397 scan(): 40b r 00000000 @16 -> + 02000a01 @17; 0i
Debug: 272 27 riscv-013.c:407 scan():  ->  cmdtype=2
Debug: 273 27 riscv-013.c:397 scan(): 40b - 00000000 @16 -> + 02000801 @16; 0i
Debug: 274 27 riscv-013.c:407 scan():  ->  progbufsize=2 datacount=1
Debug: 275 27 program.c:35 riscv_program_write(): [serv.cpu.0] debug_buffer[00] = DASM(0x30041073)
Debug: 276 27 riscv-013.c:397 scan(): 40b w 30041073 @20 -> + 02000801 @16; 0i
Debug: 277 27 riscv-013.c:407 scan():  ->  progbufsize=2 datacount=1
Debug: 278 27 riscv-013.c:397 scan(): 40b - 00000000 @20 -> + 02000801 @20; 0i
Debug: 279 27 program.c:35 riscv_program_write(): [serv.cpu.0] debug_buffer[01] = DASM(0x00100073)
Debug: 280 27 riscv-013.c:4811 riscv013_write_debug_buffer(): [serv.cpu.0] Cache hit for 0x100073 @1
Debug: 281 27 riscv-013.c:783 execute_abstract_command(): [serv.cpu.0] command=0x241000; access register, size=32, postexec=1, transfer=0, write=0, regno=0x1000
Debug: 282 28 riscv-013.c:397 scan(): 40b w 00241000 @17 -> + 02000801 @20; 0i
Debug: 283 28 riscv-013.c:397 scan(): 40b r 00000000 @16 -> + 02000801 @17; 0i
Debug: 284 28 riscv-013.c:407 scan():  ->  cmdtype=2
Debug: 285 28 riscv-013.c:397 scan(): 40b - 00000000 @16 -> + 02000801 @16; 0i
Debug: 286 28 riscv-013.c:407 scan():  ->  progbufsize=2 datacount=1
Debug: 287 28 riscv-013.c:1515 register_write_direct(): [serv.cpu.0] mstatus <- 0x200
Debug: 288 28 riscv-013.c:1124 prep_for_register_access(): [serv.cpu.0] Prepared to access csr3106 (mstatus=0x200)
Debug: 289 28 program.c:35 riscv_program_write(): [serv.cpu.0] debug_buffer[00] = DASM(0xc2202473)
Debug: 290 28 riscv-013.c:397 scan(): 40b w c2202473 @20 -> + 02000801 @16; 0i
Debug: 291 28 riscv-013.c:407 scan():  ->  progbufsize=2 datacount=1
Debug: 292 28 riscv-013.c:397 scan(): 40b - 00000000 @20 -> + 02000801 @20; 0i
Debug: 293 28 program.c:35 riscv_program_write(): [serv.cpu.0] debug_buffer[01] = DASM(0x00100073)
Debug: 294 28 riscv-013.c:4811 riscv013_write_debug_buffer(): [serv.cpu.0] Cache hit for 0x100073 @1
Debug: 295 28 riscv-013.c:783 execute_abstract_command(): [serv.cpu.0] command=0x241000; access register, size=32, postexec=1, transfer=0, write=0, regno=0x1000
Debug: 296 28 riscv-013.c:397 scan(): 40b w 00241000 @17 -> + 02000801 @20; 0i
Debug: 297 28 riscv-013.c:397 scan(): 40b r 00000000 @16 -> + 02000801 @17; 0i
Debug: 298 28 riscv-013.c:407 scan():  ->  cmdtype=2
Debug: 299 28 riscv-013.c:397 scan(): 40b - 00000000 @16 -> + 02000801 @16; 0i
Debug: 300 28 riscv-013.c:407 scan():  ->  progbufsize=2 datacount=1
Debug: 301 28 riscv-013.c:783 execute_abstract_command(): [serv.cpu.0] command=0x221008; access register, size=32, postexec=0, transfer=1, write=0, regno=0x1008
Debug: 302 29 riscv-013.c:397 scan(): 40b w 00221008 @17 -> + 02000801 @16; 0i
Debug: 303 29 riscv-013.c:407 scan():  ->  progbufsize=2 datacount=1
Debug: 304 29 riscv-013.c:397 scan(): 40b r 00000000 @16 -> + 02000801 @17; 0i
Debug: 305 29 riscv-013.c:407 scan():  ->  cmdtype=2
Debug: 306 29 riscv-013.c:397 scan(): 40b - 00000000 @16 -> + 02000801 @16; 0i
Debug: 307 29 riscv-013.c:407 scan():  ->  progbufsize=2 datacount=1
Debug: 308 29 riscv-013.c:397 scan(): 40b r 00000000 @04 -> + 02000801 @16; 0i
Debug: 309 29 riscv-013.c:407 scan():  ->  progbufsize=2 datacount=1
Debug: 310 29 riscv-013.c:397 scan(): 40b - 00000000 @04 -> + 00000000 @04; 0i
Debug: 311 29 riscv-013.c:1136 cleanup_after_register_access(): [serv.cpu.0] Restoring mstatus to 0x0
Debug: 312 29 riscv.c:4722 riscv_set_or_write_register(): [serv.cpu.0] No cache, writing to target: mstatus <- 0x0
Debug: 313 29 riscv-013.c:4542 riscv013_set_register(): [serv.cpu.0] writing 0x0 to register mstatus
Debug: 314 29 riscv-013.c:1496 register_write_direct(): [serv.cpu.0] Writing 0x0 to mstatus
Debug: 315 29 riscv-013.c:397 scan(): 40b w 00000000 @04 -> + 00000000 @04; 0i
Debug: 316 29 riscv-013.c:397 scan(): 40b - 00000000 @04 -> + 00000000 @04; 0i
Debug: 317 29 riscv-013.c:783 execute_abstract_command(): [serv.cpu.0] command=0x231008; access register, size=32, postexec=0, transfer=1, write=1, regno=0x1008
Debug: 318 29 riscv-013.c:397 scan(): 40b w 00231008 @17 -> + 00000000 @04; 0i
Debug: 319 29 riscv-013.c:397 scan(): 40b r 00000000 @16 -> + 00000000 @17; 0i
Debug: 320 30 riscv-013.c:397 scan(): 40b - 00000000 @16 -> + 02000801 @16; 0i
Debug: 321 30 riscv-013.c:407 scan():  ->  progbufsize=2 datacount=1
Debug: 322 30 program.c:35 riscv_program_write(): [serv.cpu.0] debug_buffer[00] = DASM(0x30041073)
Debug: 323 30 riscv-013.c:397 scan(): 40b w 30041073 @20 -> + 02000801 @16; 0i
Debug: 324 30 riscv-013.c:407 scan():  ->  progbufsize=2 datacount=1
Debug: 325 30 riscv-013.c:397 scan(): 40b - 00000000 @20 -> + 02000801 @20; 0i
Debug: 326 30 program.c:35 riscv_program_write(): [serv.cpu.0] debug_buffer[01] = DASM(0x00100073)
Debug: 327 30 riscv-013.c:4811 riscv013_write_debug_buffer(): [serv.cpu.0] Cache hit for 0x100073 @1
Debug: 328 30 riscv-013.c:783 execute_abstract_command(): [serv.cpu.0] command=0x241000; access register, size=32, postexec=1, transfer=0, write=0, regno=0x1000
Debug: 329 30 riscv-013.c:397 scan(): 40b w 00241000 @17 -> + 02000801 @20; 0i
Debug: 330 30 riscv-013.c:397 scan(): 40b r 00000000 @16 -> + 02000801 @17; 0i
Debug: 331 30 riscv-013.c:407 scan():  ->  cmdtype=2
Debug: 332 30 riscv-013.c:397 scan(): 40b - 00000000 @16 -> + 02000801 @16; 0i
Debug: 333 30 riscv-013.c:407 scan():  ->  progbufsize=2 datacount=1
Debug: 334 30 riscv-013.c:1515 register_write_direct(): [serv.cpu.0] mstatus <- 0x0
Debug: 335 30 riscv-013.c:1544 register_read_direct(): [serv.cpu.0] csr3106 = 0x0
Info : 336 30 riscv-013.c:1914 examine(): [serv.cpu.0] Vector support with vlenb=0
Debug: 337 30 riscv-013.c:1525 register_read_direct(): [serv.cpu.0] Reading csr4016
Debug: 338 30 program.c:35 riscv_program_write(): [serv.cpu.0] debug_buffer[00] = DASM(0xfb002473)
Debug: 339 30 riscv-013.c:397 scan(): 40b w fb002473 @20 -> + 02000801 @16; 0i
Debug: 340 30 riscv-013.c:407 scan():  ->  progbufsize=2 datacount=1
Debug: 341 30 riscv-013.c:397 scan(): 40b - 00000000 @20 -> + 02000801 @20; 0i
Debug: 342 30 program.c:35 riscv_program_write(): [serv.cpu.0] debug_buffer[01] = DASM(0x00100073)
Debug: 343 30 riscv-013.c:4811 riscv013_write_debug_buffer(): [serv.cpu.0] Cache hit for 0x100073 @1
Debug: 344 30 riscv-013.c:783 execute_abstract_command(): [serv.cpu.0] command=0x241000; access register, size=32, postexec=1, transfer=0, write=0, regno=0x1000
Debug: 345 31 riscv-013.c:397 scan(): 40b w 00241000 @17 -> + 02000801 @20; 0i
Debug: 346 31 riscv-013.c:397 scan(): 40b r 00000000 @16 -> + 02000801 @17; 0i
Debug: 347 31 riscv-013.c:407 scan():  ->  cmdtype=2
Debug: 348 31 riscv-013.c:397 scan(): 40b - 00000000 @16 -> + 02000801 @16; 0i
Debug: 349 31 riscv-013.c:407 scan():  ->  progbufsize=2 datacount=1
Debug: 350 31 riscv-013.c:783 execute_abstract_command(): [serv.cpu.0] command=0x221008; access register, size=32, postexec=0, transfer=1, write=0, regno=0x1008
Debug: 351 31 riscv-013.c:397 scan(): 40b w 00221008 @17 -> + 02000801 @16; 0i
Debug: 352 31 riscv-013.c:407 scan():  ->  progbufsize=2 datacount=1
Debug: 353 31 riscv-013.c:397 scan(): 40b r 00000000 @16 -> + 02000801 @17; 0i
Debug: 354 31 riscv-013.c:407 scan():  ->  cmdtype=2
Debug: 355 31 riscv-013.c:397 scan(): 40b - 00000000 @16 -> + 02000801 @16; 0i
Debug: 356 31 riscv-013.c:407 scan():  ->  progbufsize=2 datacount=1
Debug: 357 31 riscv-013.c:397 scan(): 40b r 00000000 @04 -> + 02000801 @16; 0i
Debug: 358 31 riscv-013.c:407 scan():  ->  progbufsize=2 datacount=1
Debug: 359 31 riscv-013.c:397 scan(): 40b - 00000000 @04 -> + 40000000 @04; 0i
Debug: 360 31 riscv-013.c:1544 register_read_direct(): [serv.cpu.0] csr4016 = 0x40000000
Debug: 361 31 riscv-013.c:1525 register_read_direct(): [serv.cpu.0] Reading csr860
Debug: 362 31 program.c:35 riscv_program_write(): [serv.cpu.0] debug_buffer[00] = DASM(0x35c02473)
Debug: 363 31 riscv-013.c:397 scan(): 40b w 35c02473 @20 -> + 40000000 @04; 0i
Debug: 364 32 riscv-013.c:397 scan(): 40b - 00000000 @20 -> + 40000000 @20; 0i
Debug: 365 32 program.c:35 riscv_program_write(): [serv.cpu.0] debug_buffer[01] = DASM(0x00100073)
Debug: 366 32 riscv-013.c:4811 riscv013_write_debug_buffer(): [serv.cpu.0] Cache hit for 0x100073 @1
Debug: 367 32 riscv-013.c:783 execute_abstract_command(): [serv.cpu.0] command=0x241000; access register, size=32, postexec=1, transfer=0, write=0, regno=0x1000
Debug: 368 32 riscv-013.c:397 scan(): 40b w 00241000 @17 -> + 40000000 @20; 0i
Debug: 369 32 riscv-013.c:397 scan(): 40b r 00000000 @16 -> + 40000000 @17; 0i
Debug: 370 32 riscv-013.c:407 scan():  ->  cmdtype=64
Debug: 371 32 riscv-013.c:397 scan(): 40b - 00000000 @16 -> + 02000801 @16; 0i
Debug: 372 32 riscv-013.c:407 scan():  ->  progbufsize=2 datacount=1
Debug: 373 32 riscv-013.c:783 execute_abstract_command(): [serv.cpu.0] command=0x221008; access register, size=32, postexec=0, transfer=1, write=0, regno=0x1008
Debug: 374 32 riscv-013.c:397 scan(): 40b w 00221008 @17 -> + 02000801 @16; 0i
Debug: 375 32 riscv-013.c:407 scan():  ->  progbufsize=2 datacount=1
Debug: 376 32 riscv-013.c:397 scan(): 40b r 00000000 @16 -> + 02000801 @17; 0i
Debug: 377 32 riscv-013.c:407 scan():  ->  cmdtype=2
Debug: 378 32 riscv-013.c:397 scan(): 40b - 00000000 @16 -> + 02000801 @16; 0i
Debug: 379 32 riscv-013.c:407 scan():  ->  progbufsize=2 datacount=1
Debug: 380 32 riscv-013.c:397 scan(): 40b r 00000000 @04 -> + 02000801 @16; 0i
Debug: 381 32 riscv-013.c:407 scan():  ->  progbufsize=2 datacount=1
Debug: 382 32 riscv-013.c:397 scan(): 40b - 00000000 @04 -> + 00000000 @04; 0i
Debug: 383 32 riscv-013.c:1544 register_read_direct(): [serv.cpu.0] csr860 = 0x0
Info : 384 32 riscv-013.c:1921 examine(): [serv.cpu.0] S?aia detected with IMSIC
Debug: 385 32 riscv-013.c:1933 examine(): [serv.cpu.0]  XLEN=32, misa=0x40000010
Debug: 386 32 riscv-013.c:1496 register_write_direct(): [serv.cpu.0] Writing 0x40000010 to s0
Debug: 387 33 riscv-013.c:397 scan(): 40b w 40000010 @04 -> + 00000000 @04; 0i
Debug: 388 33 riscv-013.c:397 scan(): 40b - 00000000 @04 -> + 00000000 @04; 0i
Debug: 389 33 riscv-013.c:783 execute_abstract_command(): [serv.cpu.0] command=0x231008; access register, size=32, postexec=0, transfer=1, write=1, regno=0x1008
Debug: 390 33 riscv-013.c:397 scan(): 40b w 00231008 @17 -> + 00000000 @04; 0i
Debug: 391 33 riscv-013.c:397 scan(): 40b r 00000000 @16 -> + 00000000 @17; 0i
Debug: 392 33 riscv-013.c:397 scan(): 40b - 00000000 @16 -> + 02000801 @16; 0i
Debug: 393 33 riscv-013.c:407 scan():  ->  progbufsize=2 datacount=1
Debug: 394 33 riscv-013.c:1515 register_write_direct(): [serv.cpu.0] s0 <- 0x40000010
Debug: 395 33 riscv-013.c:1496 register_write_direct(): [serv.cpu.0] Writing 0x0 to s1
Debug: 396 33 riscv-013.c:397 scan(): 40b w 00000000 @04 -> + 02000801 @16; 0i
Debug: 397 33 riscv-013.c:407 scan():  ->  progbufsize=2 datacount=1
Debug: 398 33 riscv-013.c:397 scan(): 40b - 00000000 @04 -> + 02000801 @04; 0i
Debug: 399 33 riscv-013.c:783 execute_abstract_command(): [serv.cpu.0] command=0x231009; access register, size=32, postexec=0, transfer=1, write=1, regno=0x1009
Debug: 400 33 riscv-013.c:397 scan(): 40b w 00231009 @17 -> + 02000801 @04; 0i
Debug: 401 33 riscv-013.c:397 scan(): 40b r 00000000 @16 -> + 02000801 @17; 0i
Debug: 402 33 riscv-013.c:407 scan():  ->  cmdtype=2
Debug: 403 33 riscv-013.c:397 scan(): 40b - 00000000 @16 -> + 02000801 @16; 0i
Debug: 404 33 riscv-013.c:407 scan():  ->  progbufsize=2 datacount=1
Debug: 405 33 riscv-013.c:1515 register_write_direct(): [serv.cpu.0] s1 <- 0x0
Debug: 406 33 riscv.c:5352 riscv_init_registers(): [serv.cpu.0] create register cache for 4194 registers
Debug: 407 34 riscv.c:5974 riscv_init_registers(): [serv.cpu.0] Exposing additional CSR 4032 (name=csr_mxisa).
Debug: 408 34 riscv-013.c:1575 set_dcsr_ebreak(): [serv.cpu.0] Set dcsr.ebreak*
Debug: 409 34 riscv.c:4825 riscv_get_register(): [serv.cpu.0] Reading dcsr from target
Debug: 410 34 riscv-013.c:4513 riscv013_get_register(): [serv.cpu.0] reading register dcsr
Debug: 411 34 riscv-013.c:1525 register_read_direct(): [serv.cpu.0] Reading dcsr
Debug: 412 34 riscv.c:4861 riscv_save_register(): [serv.cpu.0] Saving fp
Debug: 413 34 riscv.c:4825 riscv_get_register(): [serv.cpu.0] Reading fp from target
Debug: 414 34 riscv-013.c:4513 riscv013_get_register(): [serv.cpu.0] reading register s0
Debug: 415 34 riscv-013.c:1525 register_read_direct(): [serv.cpu.0] Reading s0
Debug: 416 34 riscv-013.c:783 execute_abstract_command(): [serv.cpu.0] command=0x221008; access register, size=32, postexec=0, transfer=1, write=0, regno=0x1008
Debug: 417 34 riscv-013.c:397 scan(): 40b w 00221008 @17 -> + 02000801 @16; 0i
Debug: 418 34 riscv-013.c:407 scan():  ->  progbufsize=2 datacount=1
Debug: 419 34 riscv-013.c:397 scan(): 40b r 00000000 @16 -> + 02000801 @17; 0i
Debug: 420 34 riscv-013.c:407 scan():  ->  cmdtype=2
Debug: 421 34 riscv-013.c:397 scan(): 40b - 00000000 @16 -> + 02000801 @16; 0i
Debug: 422 34 riscv-013.c:407 scan():  ->  progbufsize=2 datacount=1
Debug: 423 34 riscv-013.c:397 scan(): 40b r 00000000 @04 -> + 02000801 @16; 0i
Debug: 424 34 riscv-013.c:407 scan():  ->  progbufsize=2 datacount=1
Debug: 425 35 riscv-013.c:397 scan(): 40b - 00000000 @04 -> + 40000010 @04; 0i
Debug: 426 35 riscv-013.c:1544 register_read_direct(): [serv.cpu.0] s0 = 0x40000010
Debug: 427 35 riscv.c:4833 riscv_get_register(): [serv.cpu.0] Read fp: 0x40000010
Debug: 428 35 program.c:35 riscv_program_write(): [serv.cpu.0] debug_buffer[00] = DASM(0x7b002473)
Debug: 429 35 riscv-013.c:397 scan(): 40b w 7b002473 @20 -> + 40000010 @04; 0i
Debug: 430 35 riscv-013.c:397 scan(): 40b - 00000000 @20 -> + 40000010 @20; 0i
Debug: 431 35 program.c:35 riscv_program_write(): [serv.cpu.0] debug_buffer[01] = DASM(0x00100073)
Debug: 432 35 riscv-013.c:4811 riscv013_write_debug_buffer(): [serv.cpu.0] Cache hit for 0x100073 @1
Debug: 433 35 riscv-013.c:783 execute_abstract_command(): [serv.cpu.0] command=0x241000; access register, size=32, postexec=1, transfer=0, write=0, regno=0x1000
Debug: 434 35 riscv-013.c:397 scan(): 40b w 00241000 @17 -> + 40000010 @20; 0i
Debug: 435 35 riscv-013.c:397 scan(): 40b r 00000000 @16 -> + 40000010 @17; 0i
Debug: 436 35 riscv-013.c:407 scan():  ->  cmdtype=64
Debug: 437 35 riscv-013.c:397 scan(): 40b - 00000000 @16 -> + 02000801 @16; 0i
Debug: 438 35 riscv-013.c:407 scan():  ->  progbufsize=2 datacount=1
Debug: 439 35 riscv-013.c:783 execute_abstract_command(): [serv.cpu.0] command=0x221008; access register, size=32, postexec=0, transfer=1, write=0, regno=0x1008
Debug: 440 35 riscv-013.c:397 scan(): 40b w 00221008 @17 -> + 02000801 @16; 0i
Debug: 441 35 riscv-013.c:407 scan():  ->  progbufsize=2 datacount=1
Debug: 442 35 riscv-013.c:397 scan(): 40b r 00000000 @16 -> + 02000801 @17; 0i
Debug: 443 35 riscv-013.c:407 scan():  ->  cmdtype=2
Debug: 444 35 riscv-013.c:397 scan(): 40b - 00000000 @16 -> + 02000801 @16; 0i
Debug: 445 35 riscv-013.c:407 scan():  ->  progbufsize=2 datacount=1
Debug: 446 35 riscv-013.c:397 scan(): 40b r 00000000 @04 -> + 02000801 @16; 0i
Debug: 447 35 riscv-013.c:407 scan():  ->  progbufsize=2 datacount=1
Debug: 448 36 riscv-013.c:397 scan(): 40b - 00000000 @04 -> + 40000000 @04; 0i
Debug: 449 36 riscv-013.c:1544 register_read_direct(): [serv.cpu.0] dcsr = 0x40000000
Debug: 450 36 riscv.c:4833 riscv_get_register(): [serv.cpu.0] Read dcsr: 0x40000000
Debug: 451 36 riscv.c:4747 riscv_set_or_write_register(): [serv.cpu.0] Writing to target: dcsr <- 0x40008000 (cacheable=false, valid=true, dirty=false)
Debug: 452 36 riscv-013.c:4542 riscv013_set_register(): [serv.cpu.0] writing 0x40008000 to register dcsr
Debug: 453 36 riscv-013.c:1496 register_write_direct(): [serv.cpu.0] Writing 0x40008000 to dcsr
Debug: 454 36 riscv.c:4861 riscv_save_register(): [serv.cpu.0] Saving fp
Debug: 455 36 riscv.c:4820 riscv_get_register(): [serv.cpu.0] Read fp: 0x40000010 (cached)
Debug: 456 36 riscv-013.c:397 scan(): 40b w 40008000 @04 -> + 40000000 @04; 0i
Debug: 457 36 riscv-013.c:397 scan(): 40b - 00000000 @04 -> + 40000000 @04; 0i
Debug: 458 36 riscv-013.c:783 execute_abstract_command(): [serv.cpu.0] command=0x231008; access register, size=32, postexec=0, transfer=1, write=1, regno=0x1008
Debug: 459 36 riscv-013.c:397 scan(): 40b w 00231008 @17 -> + 40000000 @04; 0i
Debug: 460 36 riscv-013.c:397 scan(): 40b r 00000000 @16 -> + 40000000 @17; 0i
Debug: 461 36 riscv-013.c:407 scan():  ->  cmdtype=64
Debug: 462 36 riscv-013.c:397 scan(): 40b - 00000000 @16 -> + 02000801 @16; 0i
Debug: 463 36 riscv-013.c:407 scan():  ->  progbufsize=2 datacount=1
Debug: 464 36 program.c:35 riscv_program_write(): [serv.cpu.0] debug_buffer[00] = DASM(0x7b041073)
Debug: 465 36 riscv-013.c:397 scan(): 40b w 7b041073 @20 -> + 02000801 @16; 0i
Debug: 466 36 riscv-013.c:407 scan():  ->  progbufsize=2 datacount=1
Debug: 467 36 riscv-013.c:397 scan(): 40b - 00000000 @20 -> + 02000801 @20; 0i
Debug: 468 36 program.c:35 riscv_program_write(): [serv.cpu.0] debug_buffer[01] = DASM(0x00100073)
Debug: 469 36 riscv-013.c:4811 riscv013_write_debug_buffer(): [serv.cpu.0] Cache hit for 0x100073 @1
Debug: 470 36 riscv-013.c:783 execute_abstract_command(): [serv.cpu.0] command=0x241000; access register, size=32, postexec=1, transfer=0, write=0, regno=0x1000
Debug: 471 36 riscv-013.c:397 scan(): 40b w 00241000 @17 -> + 02000801 @20; 0i
Debug: 472 36 riscv-013.c:397 scan(): 40b r 00000000 @16 -> + 02000801 @17; 0i
Debug: 473 36 riscv-013.c:407 scan():  ->  cmdtype=2
Debug: 474 37 riscv-013.c:397 scan(): 40b - 00000000 @16 -> + 02000801 @16; 0i
Debug: 475 37 riscv-013.c:407 scan():  ->  progbufsize=2 datacount=1
Debug: 476 37 riscv-013.c:1515 register_write_direct(): [serv.cpu.0] dcsr <- 0x40008000
Debug: 477 37 riscv.c:4763 riscv_set_or_write_register(): [serv.cpu.0] Wrote 0x40008000 to dcsr (cacheable=false, valid=false, dirty=false)
Debug: 478 37 riscv-013.c:4906 riscv013_step_or_resume_current_hart(): [serv.cpu.0] resuming (for step?=0)
Debug: 479 37 riscv.c:1557 riscv_flush_registers(): [serv.cpu.0] Flushing register cache
Debug: 480 37 riscv.c:1568 riscv_flush_registers(): [serv.cpu.0] fp is dirty; write back 0x40000010
Debug: 481 37 riscv-013.c:4542 riscv013_set_register(): [serv.cpu.0] writing 0x40000010 to register s0
Debug: 482 37 riscv-013.c:1496 register_write_direct(): [serv.cpu.0] Writing 0x40000010 to s0
Debug: 483 37 riscv-013.c:397 scan(): 40b w 40000010 @04 -> + 02000801 @16; 0i
Debug: 484 37 riscv-013.c:407 scan():  ->  progbufsize=2 datacount=1
Debug: 485 37 riscv-013.c:397 scan(): 40b - 00000000 @04 -> + 02000801 @04; 0i
Debug: 486 37 riscv-013.c:783 execute_abstract_command(): [serv.cpu.0] command=0x231008; access register, size=32, postexec=0, transfer=1, write=1, regno=0x1008
Debug: 487 37 riscv-013.c:397 scan(): 40b w 00231008 @17 -> + 02000801 @04; 0i
Debug: 488 37 riscv-013.c:397 scan(): 40b r 00000000 @16 -> + 02000801 @17; 0i
Debug: 489 37 riscv-013.c:407 scan():  ->  cmdtype=2
Debug: 490 37 riscv-013.c:397 scan(): 40b - 00000000 @16 -> + 02000801 @16; 0i
Debug: 491 37 riscv-013.c:407 scan():  ->  progbufsize=2 datacount=1
Debug: 492 37 riscv-013.c:1515 register_write_direct(): [serv.cpu.0] s0 <- 0x40000010
Debug: 493 37 riscv.c:1575 riscv_flush_registers(): [serv.cpu.0] Flush of register cache completed
Debug: 494 37 riscv-013.c:397 scan(): 40b w 40000001 @10 -> + 02000801 @16; 0i
Debug: 495 37 riscv-013.c:407 scan():  resumereq dmactive ->  progbufsize=2 datacount=1
Debug: 496 37 riscv-013.c:397 scan(): 40b - 00000000 @10 -> + 02000801 @10; 0i
Debug: 497 37 riscv-013.c:407 scan():  ->  hartselhi=32 hartsello=512 dmactive
Debug: 498 37 riscv-013.c:397 scan(): 40b r 00000000 @11 -> + 02000801 @10; 0i
Debug: 499 37 riscv-013.c:407 scan():  ->  hartselhi=32 hartsello=512 dmactive
Debug: 500 38 riscv-013.c:397 scan(): 40b - 00000000 @11 -> + 00400c83 @11; 0i
Debug: 501 38 riscv-013.c:407 scan():  ->  impebreak allrunning anyrunning authenticated version=3
Debug: 502 38 riscv-013.c:397 scan(): 40b r 00000000 @11 -> + 00400c83 @11; 0i
Debug: 503 38 riscv-013.c:407 scan():  ->  impebreak allrunning anyrunning authenticated version=3
Debug: 504 38 riscv-013.c:397 scan(): 40b - 00000000 @11 -> + 00400c83 @11; 0i
Debug: 505 38 riscv-013.c:407 scan():  ->  impebreak allrunning anyrunning authenticated version=3
Debug: 506 38 riscv-013.c:397 scan(): 40b r 00000000 @11 -> + 00400c83 @11; 0i
Debug: 507 38 riscv-013.c:407 scan():  ->  impebreak allrunning anyrunning authenticated version=3
Debug: 508 38 riscv-013.c:397 scan(): 40b - 00000000 @11 -> + 00400c83 @11; 0i
Debug: 509 38 riscv-013.c:407 scan():  ->  impebreak allrunning anyrunning authenticated version=3
Debug: 510 38 riscv-013.c:397 scan(): 40b r 00000000 @11 -> + 00400c83 @11; 0i
Debug: 511 38 riscv-013.c:407 scan():  ->  impebreak allrunning anyrunning authenticated version=3
Debug: 512 38 riscv-013.c:397 scan(): 40b - 00000000 @11 -> + 00400c83 @11; 0i
Debug: 513 38 riscv-013.c:407 scan():  ->  impebreak allrunning anyrunning authenticated version=3
Debug: 514 39 riscv-013.c:397 scan(): 40b r 00000000 @11 -> + 00400c83 @11; 0i
Debug: 515 39 riscv-013.c:407 scan():  ->  impebreak allrunning anyrunning authenticated version=3
Debug: 516 39 riscv-013.c:397 scan(): 40b - 00000000 @11 -> + 00400c83 @11; 0i
Debug: 517 39 riscv-013.c:407 scan():  ->  impebreak allrunning anyrunning authenticated version=3
Debug: 518 39 riscv-013.c:397 scan(): 40b r 00000000 @11 -> + 00400c83 @11; 0i
Debug: 519 39 riscv-013.c:407 scan():  ->  impebreak allrunning anyrunning authenticated version=3
Debug: 520 39 riscv-013.c:397 scan(): 40b - 00000000 @11 -> + 00400c83 @11; 0i
Debug: 521 39 riscv-013.c:407 scan():  ->  impebreak allrunning anyrunning authenticated version=3
Debug: 522 39 riscv-013.c:397 scan(): 40b r 00000000 @11 -> + 00400c83 @11; 0i
Debug: 523 39 riscv-013.c:407 scan():  ->  impebreak allrunning anyrunning authenticated version=3
Debug: 524 39 riscv-013.c:397 scan(): 40b - 00000000 @11 -> + 00400c83 @11; 0i
Debug: 525 39 riscv-013.c:407 scan():  ->  impebreak allrunning anyrunning authenticated version=3
Debug: 526 39 riscv-013.c:397 scan(): 40b r 00000000 @11 -> + 00400c83 @11; 0i
Debug: 527 39 riscv-013.c:407 scan():  ->  impebreak allrunning anyrunning authenticated version=3
Debug: 528 39 riscv-013.c:397 scan(): 40b - 00000000 @11 -> + 00400c83 @11; 0i
Debug: 529 39 riscv-013.c:407 scan():  ->  impebreak allrunning anyrunning authenticated version=3
Debug: 530 40 riscv-013.c:397 scan(): 40b r 00000000 @11 -> + 00400c83 @11; 0i
Debug: 531 40 riscv-013.c:407 scan():  ->  impebreak allrunning anyrunning authenticated version=3
Debug: 532 40 riscv-013.c:397 scan(): 40b - 00000000 @11 -> + 00400c83 @11; 0i
Debug: 533 40 riscv-013.c:407 scan():  ->  impebreak allrunning anyrunning authenticated version=3
Debug: 534 40 riscv-013.c:397 scan(): 40b r 00000000 @11 -> + 00400c83 @11; 0i
Debug: 535 40 riscv-013.c:407 scan():  ->  impebreak allrunning anyrunning authenticated version=3
Debug: 536 40 riscv-013.c:397 scan(): 40b - 00000000 @11 -> + 00400c83 @11; 0i
Debug: 537 40 riscv-013.c:407 scan():  ->  impebreak allrunning anyrunning authenticated version=3
Debug: 538 40 riscv-013.c:397 scan(): 40b r 00000000 @11 -> + 00400c83 @11; 0i
Debug: 539 40 riscv-013.c:407 scan():  ->  impebreak allrunning anyrunning authenticated version=3
Debug: 540 40 riscv-013.c:397 scan(): 40b - 00000000 @11 -> + 00400c83 @11; 0i
Debug: 541 40 riscv-013.c:407 scan():  ->  impebreak allrunning anyrunning authenticated version=3
Debug: 542 40 riscv-013.c:397 scan(): 40b r 00000000 @11 -> + 00400c83 @11; 0i
Debug: 543 40 riscv-013.c:407 scan():  ->  impebreak allrunning anyrunning authenticated version=3
Debug: 544 40 riscv-013.c:397 scan(): 40b - 00000000 @11 -> + 00400c83 @11; 0i
Debug: 545 40 riscv-013.c:407 scan():  ->  impebreak allrunning anyrunning authenticated version=3
Debug: 546 41 riscv-013.c:397 scan(): 40b r 00000000 @11 -> + 00400c83 @11; 0i
Debug: 547 41 riscv-013.c:407 scan():  ->  impebreak allrunning anyrunning authenticated version=3
Debug: 548 41 riscv-013.c:397 scan(): 40b - 00000000 @11 -> + 00400c83 @11; 0i
Debug: 549 41 riscv-013.c:407 scan():  ->  impebreak allrunning anyrunning authenticated version=3
Debug: 550 41 riscv-013.c:397 scan(): 40b r 00000000 @11 -> + 00400c83 @11; 0i
Debug: 551 41 riscv-013.c:407 scan():  ->  impebreak allrunning anyrunning authenticated version=3
Debug: 552 41 riscv-013.c:397 scan(): 40b - 00000000 @11 -> + 00400c83 @11; 0i
Debug: 553 41 riscv-013.c:407 scan():  ->  impebreak allrunning anyrunning authenticated version=3
Debug: 554 41 riscv-013.c:397 scan(): 40b r 00000000 @11 -> + 00400c83 @11; 0i
Debug: 555 41 riscv-013.c:407 scan():  ->  impebreak allrunning anyrunning authenticated version=3
Debug: 556 41 riscv-013.c:397 scan(): 40b - 00000000 @11 -> + 00400c83 @11; 0i
Debug: 557 41 riscv-013.c:407 scan():  ->  impebreak allrunning anyrunning authenticated version=3
Debug: 558 41 riscv-013.c:397 scan(): 40b r 00000000 @11 -> + 00400c83 @11; 0i
Debug: 559 41 riscv-013.c:407 scan():  ->  impebreak allrunning anyrunning authenticated version=3
Debug: 560 41 riscv-013.c:397 scan(): 40b - 00000000 @11 -> + 00400c83 @11; 0i
Debug: 561 41 riscv-013.c:407 scan():  ->  impebreak allrunning anyrunning authenticated version=3
Debug: 562 42 riscv-013.c:397 scan(): 40b r 00000000 @11 -> + 00400c83 @11; 0i
Debug: 563 42 riscv-013.c:407 scan():  ->  impebreak allrunning anyrunning authenticated version=3
Debug: 564 42 riscv-013.c:397 scan(): 40b - 00000000 @11 -> + 00400c83 @11; 0i
Debug: 565 42 riscv-013.c:407 scan():  ->  impebreak allrunning anyrunning authenticated version=3
Debug: 566 42 riscv-013.c:397 scan(): 40b r 00000000 @11 -> + 00400c83 @11; 0i
Debug: 567 42 riscv-013.c:407 scan():  ->  impebreak allrunning anyrunning authenticated version=3
Debug: 568 42 riscv-013.c:397 scan(): 40b - 00000000 @11 -> + 00400c83 @11; 0i
Debug: 569 42 riscv-013.c:407 scan():  ->  impebreak allrunning anyrunning authenticated version=3
Debug: 570 42 riscv-013.c:397 scan(): 40b r 00000000 @11 -> + 00400c83 @11; 0i
Debug: 571 42 riscv-013.c:407 scan():  ->  impebreak allrunning anyrunning authenticated version=3
Debug: 572 42 riscv-013.c:397 scan(): 40b - 00000000 @11 -> + 00400c83 @11; 0i
Debug: 573 42 riscv-013.c:407 scan():  ->  impebreak allrunning anyrunning authenticated version=3
Debug: 574 43 riscv-013.c:397 scan(): 40b r 00000000 @11 -> + 00400c83 @11; 0i
Debug: 575 43 riscv-013.c:407 scan():  ->  impebreak allrunning anyrunning authenticated version=3
Debug: 576 43 riscv-013.c:397 scan(): 40b - 00000000 @11 -> + 00400c83 @11; 0i
Debug: 577 43 riscv-013.c:407 scan():  ->  impebreak allrunning anyrunning authenticated version=3
Debug: 578 43 riscv-013.c:397 scan(): 40b r 00000000 @11 -> + 00400c83 @11; 0i
Debug: 579 43 riscv-013.c:407 scan():  ->  impebreak allrunning anyrunning authenticated version=3
Debug: 580 43 riscv-013.c:397 scan(): 40b - 00000000 @11 -> + 00400c83 @11; 0i
Debug: 581 43 riscv-013.c:407 scan():  ->  impebreak allrunning anyrunning authenticated version=3
Debug: 582 43 riscv-013.c:397 scan(): 40b r 00000000 @11 -> + 00400c83 @11; 0i
Debug: 583 43 riscv-013.c:407 scan():  ->  impebreak allrunning anyrunning authenticated version=3
Debug: 584 43 riscv-013.c:397 scan(): 40b - 00000000 @11 -> + 00400c83 @11; 0i
Debug: 585 43 riscv-013.c:407 scan():  ->  impebreak allrunning anyrunning authenticated version=3
Debug: 586 43 riscv-013.c:397 scan(): 40b r 00000000 @11 -> + 00400c83 @11; 0i
Debug: 587 43 riscv-013.c:407 scan():  ->  impebreak allrunning anyrunning authenticated version=3
Debug: 588 44 riscv-013.c:397 scan(): 40b - 00000000 @11 -> + 00400c83 @11; 0i
Debug: 589 44 riscv-013.c:407 scan():  ->  impebreak allrunning anyrunning authenticated version=3
Debug: 590 44 riscv-013.c:397 scan(): 40b r 00000000 @11 -> + 00400c83 @11; 0i
Debug: 591 44 riscv-013.c:407 scan():  ->  impebreak allrunning anyrunning authenticated version=3
Debug: 592 44 riscv-013.c:397 scan(): 40b - 00000000 @11 -> + 00400c83 @11; 0i
Debug: 593 44 riscv-013.c:407 scan():  ->  impebreak allrunning anyrunning authenticated version=3
Debug: 594 44 riscv-013.c:397 scan(): 40b r 00000000 @11 -> + 00400c83 @11; 0i
Debug: 595 44 riscv-013.c:407 scan():  ->  impebreak allrunning anyrunning authenticated version=3
Debug: 596 44 riscv-013.c:397 scan(): 40b - 00000000 @11 -> + 00400c83 @11; 0i
Debug: 597 44 riscv-013.c:407 scan():  ->  impebreak allrunning anyrunning authenticated version=3
Debug: 598 44 riscv-013.c:397 scan(): 40b r 00000000 @11 -> + 00400c83 @11; 0i
Debug: 599 44 riscv-013.c:407 scan():  ->  impebreak allrunning anyrunning authenticated version=3
Debug: 600 44 riscv-013.c:397 scan(): 40b - 00000000 @11 -> + 00400c83 @11; 0i
Debug: 601 44 riscv-013.c:407 scan():  ->  impebreak allrunning anyrunning authenticated version=3
Debug: 602 45 riscv-013.c:397 scan(): 40b r 00000000 @11 -> + 00400c83 @11; 0i
Debug: 603 45 riscv-013.c:407 scan():  ->  impebreak allrunning anyrunning authenticated version=3
Debug: 604 45 riscv-013.c:397 scan(): 40b - 00000000 @11 -> + 00400c83 @11; 0i
Debug: 605 45 riscv-013.c:407 scan():  ->  impebreak allrunning anyrunning authenticated version=3
Debug: 606 45 riscv-013.c:397 scan(): 40b r 00000000 @11 -> + 00400c83 @11; 0i
Debug: 607 45 riscv-013.c:407 scan():  ->  impebreak allrunning anyrunning authenticated version=3
Debug: 608 45 riscv-013.c:397 scan(): 40b - 00000000 @11 -> + 00400c83 @11; 0i
Debug: 609 45 riscv-013.c:407 scan():  ->  impebreak allrunning anyrunning authenticated version=3
Debug: 610 45 riscv-013.c:397 scan(): 40b r 00000000 @11 -> + 00400c83 @11; 0i
Debug: 611 45 riscv-013.c:407 scan():  ->  impebreak allrunning anyrunning authenticated version=3
Debug: 612 45 riscv-013.c:397 scan(): 40b - 00000000 @11 -> + 00400c83 @11; 0i
Debug: 613 45 riscv-013.c:407 scan():  ->  impebreak allrunning anyrunning authenticated version=3
Debug: 614 46 riscv-013.c:397 scan(): 40b r 00000000 @11 -> + 00400c83 @11; 0i
Debug: 615 46 riscv-013.c:407 scan():  ->  impebreak allrunning anyrunning authenticated version=3
Debug: 616 46 riscv-013.c:397 scan(): 40b - 00000000 @11 -> + 00400c83 @11; 0i
Debug: 617 46 riscv-013.c:407 scan():  ->  impebreak allrunning anyrunning authenticated version=3
Debug: 618 46 riscv-013.c:397 scan(): 40b r 00000000 @11 -> + 00400c83 @11; 0i
Debug: 619 46 riscv-013.c:407 scan():  ->  impebreak allrunning anyrunning authenticated version=3
Debug: 620 46 riscv-013.c:397 scan(): 40b - 00000000 @11 -> + 00400c83 @11; 0i
Debug: 621 46 riscv-013.c:407 scan():  ->  impebreak allrunning anyrunning authenticated version=3
Debug: 622 46 riscv-013.c:397 scan(): 40b r 00000000 @11 -> + 00400c83 @11; 0i
Debug: 623 46 riscv-013.c:407 scan():  ->  impebreak allrunning anyrunning authenticated version=3
Debug: 624 46 riscv-013.c:397 scan(): 40b - 00000000 @11 -> + 00400c83 @11; 0i
Debug: 625 46 riscv-013.c:407 scan():  ->  impebreak allrunning anyrunning authenticated version=3
Debug: 626 46 riscv-013.c:397 scan(): 40b r 00000000 @11 -> + 00400c83 @11; 0i
Debug: 627 46 riscv-013.c:407 scan():  ->  impebreak allrunning anyrunning authenticated version=3
Debug: 628 47 riscv-013.c:397 scan(): 40b - 00000000 @11 -> + 00400c83 @11; 0i
Debug: 629 47 riscv-013.c:407 scan():  ->  impebreak allrunning anyrunning authenticated version=3
Debug: 630 47 riscv-013.c:397 scan(): 40b r 00000000 @11 -> + 00400c83 @11; 0i
Debug: 631 47 riscv-013.c:407 scan():  ->  impebreak allrunning anyrunning authenticated version=3
Debug: 632 47 riscv-013.c:397 scan(): 40b - 00000000 @11 -> + 00400c83 @11; 0i
Debug: 633 47 riscv-013.c:407 scan():  ->  impebreak allrunning anyrunning authenticated version=3
Debug: 634 47 riscv-013.c:397 scan(): 40b r 00000000 @11 -> + 00400c83 @11; 0i
Debug: 635 47 riscv-013.c:407 scan():  ->  impebreak allrunning anyrunning authenticated version=3
Debug: 636 47 riscv-013.c:397 scan(): 40b - 00000000 @11 -> + 00400c83 @11; 0i
Debug: 637 47 riscv-013.c:407 scan():  ->  impebreak allrunning anyrunning authenticated version=3
Debug: 638 47 riscv-013.c:397 scan(): 40b r 00000000 @11 -> + 00400c83 @11; 0i
Debug: 639 47 riscv-013.c:407 scan():  ->  impebreak allrunning anyrunning authenticated version=3
Debug: 640 47 riscv-013.c:397 scan(): 40b - 00000000 @11 -> + 00400c83 @11; 0i
Debug: 641 47 riscv-013.c:407 scan():  ->  impebreak allrunning anyrunning authenticated version=3
Debug: 642 48 riscv-013.c:397 scan(): 40b r 00000000 @11 -> + 00400c83 @11; 0i
Debug: 643 48 riscv-013.c:407 scan():  ->  impebreak allrunning anyrunning authenticated version=3
Debug: 644 48 riscv-013.c:397 scan(): 40b - 00000000 @11 -> + 00400c83 @11; 0i
Debug: 645 48 riscv-013.c:407 scan():  ->  impebreak allrunning anyrunning authenticated version=3
Debug: 646 48 riscv-013.c:397 scan(): 40b r 00000000 @11 -> + 00400c83 @11; 0i
Debug: 647 48 riscv-013.c:407 scan():  ->  impebreak allrunning anyrunning authenticated version=3
Debug: 648 48 riscv-013.c:397 scan(): 40b - 00000000 @11 -> + 00400c83 @11; 0i
Debug: 649 48 riscv-013.c:407 scan():  ->  impebreak allrunning anyrunning authenticated version=3
Debug: 650 48 riscv-013.c:397 scan(): 40b r 00000000 @11 -> + 00400c83 @11; 0i
Debug: 651 48 riscv-013.c:407 scan():  ->  impebreak allrunning anyrunning authenticated version=3
Debug: 652 48 riscv-013.c:397 scan(): 40b - 00000000 @11 -> + 00400c83 @11; 0i
Debug: 653 48 riscv-013.c:407 scan():  ->  impebreak allrunning anyrunning authenticated version=3
Debug: 654 49 riscv-013.c:397 scan(): 40b r 00000000 @11 -> + 00400c83 @11; 0i
Debug: 655 49 riscv-013.c:407 scan():  ->  impebreak allrunning anyrunning authenticated version=3
Debug: 656 49 riscv-013.c:397 scan(): 40b - 00000000 @11 -> + 00400c83 @11; 0i
Debug: 657 49 riscv-013.c:407 scan():  ->  impebreak allrunning anyrunning authenticated version=3
Debug: 658 49 riscv-013.c:397 scan(): 40b r 00000000 @11 -> + 00400c83 @11; 0i
Debug: 659 49 riscv-013.c:407 scan():  ->  impebreak allrunning anyrunning authenticated version=3
Debug: 660 49 riscv-013.c:397 scan(): 40b - 00000000 @11 -> + 00400c83 @11; 0i
Debug: 661 49 riscv-013.c:407 scan():  ->  impebreak allrunning anyrunning authenticated version=3
Debug: 662 49 riscv-013.c:397 scan(): 40b r 00000000 @11 -> + 00400c83 @11; 0i
Debug: 663 49 riscv-013.c:407 scan():  ->  impebreak allrunning anyrunning authenticated version=3
Debug: 664 49 riscv-013.c:397 scan(): 40b - 00000000 @11 -> + 00400c83 @11; 0i
Debug: 665 49 riscv-013.c:407 scan():  ->  impebreak allrunning anyrunning authenticated version=3
Debug: 666 49 riscv-013.c:397 scan(): 40b r 00000000 @11 -> + 00400c83 @11; 0i
Debug: 667 49 riscv-013.c:407 scan():  ->  impebreak allrunning anyrunning authenticated version=3
Debug: 668 50 riscv-013.c:397 scan(): 40b - 00000000 @11 -> + 00400c83 @11; 0i
Debug: 669 50 riscv-013.c:407 scan():  ->  impebreak allrunning anyrunning authenticated version=3
Debug: 670 50 riscv-013.c:397 scan(): 40b r 00000000 @11 -> + 00400c83 @11; 0i
Debug: 671 50 riscv-013.c:407 scan():  ->  impebreak allrunning anyrunning authenticated version=3
Debug: 672 50 riscv-013.c:397 scan(): 40b - 00000000 @11 -> + 00400c83 @11; 0i
Debug: 673 50 riscv-013.c:407 scan():  ->  impebreak allrunning anyrunning authenticated version=3
Debug: 674 50 riscv-013.c:397 scan(): 40b r 00000000 @11 -> + 00400c83 @11; 0i
Debug: 675 50 riscv-013.c:407 scan():  ->  impebreak allrunning anyrunning authenticated version=3
Debug: 676 50 riscv-013.c:397 scan(): 40b - 00000000 @11 -> + 00400c83 @11; 0i
Debug: 677 50 riscv-013.c:407 scan():  ->  impebreak allrunning anyrunning authenticated version=3
Debug: 678 50 riscv-013.c:397 scan(): 40b r 00000000 @11 -> + 00400c83 @11; 0i
Debug: 679 50 riscv-013.c:407 scan():  ->  impebreak allrunning anyrunning authenticated version=3
Debug: 680 50 riscv-013.c:397 scan(): 40b - 00000000 @11 -> + 00400c83 @11; 0i
Debug: 681 50 riscv-013.c:407 scan():  ->  impebreak allrunning anyrunning authenticated version=3
Debug: 682 51 riscv-013.c:397 scan(): 40b r 00000000 @11 -> + 00400c83 @11; 0i
Debug: 683 51 riscv-013.c:407 scan():  ->  impebreak allrunning anyrunning authenticated version=3
Debug: 684 51 riscv-013.c:397 scan(): 40b - 00000000 @11 -> + 00400c83 @11; 0i
Debug: 685 51 riscv-013.c:407 scan():  ->  impebreak allrunning anyrunning authenticated version=3
Debug: 686 51 riscv-013.c:397 scan(): 40b r 00000000 @11 -> + 00400c83 @11; 0i
Debug: 687 51 riscv-013.c:407 scan():  ->  impebreak allrunning anyrunning authenticated version=3
Debug: 688 51 riscv-013.c:397 scan(): 40b - 00000000 @11 -> + 00400c83 @11; 0i
Debug: 689 51 riscv-013.c:407 scan():  ->  impebreak allrunning anyrunning authenticated version=3
Debug: 690 51 riscv-013.c:397 scan(): 40b r 00000000 @11 -> + 00400c83 @11; 0i
Debug: 691 51 riscv-013.c:407 scan():  ->  impebreak allrunning anyrunning authenticated version=3
Debug: 692 51 riscv-013.c:397 scan(): 40b - 00000000 @11 -> + 00400c83 @11; 0i
Debug: 693 51 riscv-013.c:407 scan():  ->  impebreak allrunning anyrunning authenticated version=3
Debug: 694 52 riscv-013.c:397 scan(): 40b r 00000000 @11 -> + 00400c83 @11; 0i
Debug: 695 52 riscv-013.c:407 scan():  ->  impebreak allrunning anyrunning authenticated version=3
Debug: 696 52 riscv-013.c:397 scan(): 40b - 00000000 @11 -> + 00400c83 @11; 0i
Debug: 697 52 riscv-013.c:407 scan():  ->  impebreak allrunning anyrunning authenticated version=3
Debug: 698 52 riscv-013.c:397 scan(): 40b r 00000000 @11 -> + 00400c83 @11; 0i
Debug: 699 52 riscv-013.c:407 scan():  ->  impebreak allrunning anyrunning authenticated version=3
Debug: 700 52 riscv-013.c:397 scan(): 40b - 00000000 @11 -> + 00400c83 @11; 0i
Debug: 701 52 riscv-013.c:407 scan():  ->  impebreak allrunning anyrunning authenticated version=3
Debug: 702 52 riscv-013.c:397 scan(): 40b r 00000000 @11 -> + 00400c83 @11; 0i
Debug: 703 52 riscv-013.c:407 scan():  ->  impebreak allrunning anyrunning authenticated version=3
Debug: 704 52 riscv-013.c:397 scan(): 40b - 00000000 @11 -> + 00400c83 @11; 0i
Debug: 705 52 riscv-013.c:407 scan():  ->  impebreak allrunning anyrunning authenticated version=3
Debug: 706 52 riscv-013.c:397 scan(): 40b r 00000000 @11 -> + 00400c83 @11; 0i
Debug: 707 52 riscv-013.c:407 scan():  ->  impebreak allrunning anyrunning authenticated version=3
Debug: 708 53 riscv-013.c:397 scan(): 40b - 00000000 @11 -> + 00400c83 @11; 0i
Debug: 709 53 riscv-013.c:407 scan():  ->  impebreak allrunning anyrunning authenticated version=3
Debug: 710 53 riscv-013.c:397 scan(): 40b r 00000000 @11 -> + 00400c83 @11; 0i
Debug: 711 53 riscv-013.c:407 scan():  ->  impebreak allrunning anyrunning authenticated version=3
Debug: 712 53 riscv-013.c:397 scan(): 40b - 00000000 @11 -> + 00400c83 @11; 0i
Debug: 713 53 riscv-013.c:407 scan():  ->  impebreak allrunning anyrunning authenticated version=3
Debug: 714 53 riscv-013.c:397 scan(): 40b r 00000000 @11 -> + 00400c83 @11; 0i
Debug: 715 53 riscv-013.c:407 scan():  ->  impebreak allrunning anyrunning authenticated version=3
Debug: 716 53 riscv-013.c:397 scan(): 40b - 00000000 @11 -> + 00400c83 @11; 0i
Debug: 717 53 riscv-013.c:407 scan():  ->  impebreak allrunning anyrunning authenticated version=3
Debug: 718 53 riscv-013.c:397 scan(): 40b r 00000000 @11 -> + 00400c83 @11; 0i
Debug: 719 53 riscv-013.c:407 scan():  ->  impebreak allrunning anyrunning authenticated version=3
Debug: 720 53 riscv-013.c:397 scan(): 40b - 00000000 @11 -> + 00400c83 @11; 0i
Debug: 721 53 riscv-013.c:407 scan():  ->  impebreak allrunning anyrunning authenticated version=3
Debug: 722 54 riscv-013.c:397 scan(): 40b r 00000000 @11 -> + 00400c83 @11; 0i
Debug: 723 54 riscv-013.c:407 scan():  ->  impebreak allrunning anyrunning authenticated version=3
Debug: 724 54 riscv-013.c:397 scan(): 40b - 00000000 @11 -> + 00400c83 @11; 0i
Debug: 725 54 riscv-013.c:407 scan():  ->  impebreak allrunning anyrunning authenticated version=3
Debug: 726 54 riscv-013.c:397 scan(): 40b r 00000000 @11 -> + 00400c83 @11; 0i
Debug: 727 54 riscv-013.c:407 scan():  ->  impebreak allrunning anyrunning authenticated version=3
Debug: 728 54 riscv-013.c:397 scan(): 40b - 00000000 @11 -> + 00400c83 @11; 0i
Debug: 729 54 riscv-013.c:407 scan():  ->  impebreak allrunning anyrunning authenticated version=3
Debug: 730 54 riscv-013.c:397 scan(): 40b r 00000000 @11 -> + 00400c83 @11; 0i
Debug: 731 54 riscv-013.c:407 scan():  ->  impebreak allrunning anyrunning authenticated version=3
Debug: 732 54 riscv-013.c:397 scan(): 40b - 00000000 @11 -> + 00400c83 @11; 0i
Debug: 733 54 riscv-013.c:407 scan():  ->  impebreak allrunning anyrunning authenticated version=3
Debug: 734 55 riscv-013.c:397 scan(): 40b r 00000000 @11 -> + 00400c83 @11; 0i
Debug: 735 55 riscv-013.c:407 scan():  ->  impebreak allrunning anyrunning authenticated version=3
Debug: 736 55 riscv-013.c:397 scan(): 40b - 00000000 @11 -> + 00400c83 @11; 0i
Debug: 737 55 riscv-013.c:407 scan():  ->  impebreak allrunning anyrunning authenticated version=3
Debug: 738 55 riscv-013.c:397 scan(): 40b r 00000000 @11 -> + 00400c83 @11; 0i
Debug: 739 55 riscv-013.c:407 scan():  ->  impebreak allrunning anyrunning authenticated version=3
Debug: 740 55 riscv-013.c:397 scan(): 40b - 00000000 @11 -> + 00400c83 @11; 0i
Debug: 741 55 riscv-013.c:407 scan():  ->  impebreak allrunning anyrunning authenticated version=3
Debug: 742 55 riscv-013.c:397 scan(): 40b r 00000000 @11 -> + 00400c83 @11; 0i
Debug: 743 55 riscv-013.c:407 scan():  ->  impebreak allrunning anyrunning authenticated version=3
Debug: 744 55 riscv-013.c:397 scan(): 40b - 00000000 @11 -> + 00400c83 @11; 0i
Debug: 745 55 riscv-013.c:407 scan():  ->  impebreak allrunning anyrunning authenticated version=3
Debug: 746 55 riscv-013.c:397 scan(): 40b r 00000000 @11 -> + 00400c83 @11; 0i
Debug: 747 55 riscv-013.c:407 scan():  ->  impebreak allrunning anyrunning authenticated version=3
Debug: 748 56 riscv-013.c:397 scan(): 40b - 00000000 @11 -> + 00400c83 @11; 0i
Debug: 749 56 riscv-013.c:407 scan():  ->  impebreak allrunning anyrunning authenticated version=3
Debug: 750 56 riscv-013.c:397 scan(): 40b r 00000000 @11 -> + 00400c83 @11; 0i
Debug: 751 56 riscv-013.c:407 scan():  ->  impebreak allrunning anyrunning authenticated version=3
Debug: 752 56 riscv-013.c:397 scan(): 40b - 00000000 @11 -> + 00400c83 @11; 0i
Debug: 753 56 riscv-013.c:407 scan():  ->  impebreak allrunning anyrunning authenticated version=3
Debug: 754 56 riscv-013.c:397 scan(): 40b r 00000000 @11 -> + 00400c83 @11; 0i
Debug: 755 56 riscv-013.c:407 scan():  ->  impebreak allrunning anyrunning authenticated version=3
Debug: 756 56 riscv-013.c:397 scan(): 40b - 00000000 @11 -> + 00400c83 @11; 0i
Debug: 757 56 riscv-013.c:407 scan():  ->  impebreak allrunning anyrunning authenticated version=3
Debug: 758 56 riscv-013.c:397 scan(): 40b r 00000000 @11 -> + 00400c83 @11; 0i
Debug: 759 56 riscv-013.c:407 scan():  ->  impebreak allrunning anyrunning authenticated version=3
Debug: 760 56 riscv-013.c:397 scan(): 40b - 00000000 @11 -> + 00400c83 @11; 0i
Debug: 761 56 riscv-013.c:407 scan():  ->  impebreak allrunning anyrunning authenticated version=3
Debug: 762 57 riscv-013.c:397 scan(): 40b r 00000000 @11 -> + 00400c83 @11; 0i
Debug: 763 57 riscv-013.c:407 scan():  ->  impebreak allrunning anyrunning authenticated version=3
Debug: 764 57 riscv-013.c:397 scan(): 40b - 00000000 @11 -> + 00400c83 @11; 0i
Debug: 765 57 riscv-013.c:407 scan():  ->  impebreak allrunning anyrunning authenticated version=3
Debug: 766 57 riscv-013.c:397 scan(): 40b r 00000000 @11 -> + 00400c83 @11; 0i
Debug: 767 57 riscv-013.c:407 scan():  ->  impebreak allrunning anyrunning authenticated version=3
Debug: 768 57 riscv-013.c:397 scan(): 40b - 00000000 @11 -> + 00400c83 @11; 0i
Debug: 769 57 riscv-013.c:407 scan():  ->  impebreak allrunning anyrunning authenticated version=3
Debug: 770 57 riscv-013.c:397 scan(): 40b r 00000000 @11 -> + 00400c83 @11; 0i
Debug: 771 57 riscv-013.c:407 scan():  ->  impebreak allrunning anyrunning authenticated version=3
Debug: 772 57 riscv-013.c:397 scan(): 40b - 00000000 @11 -> + 00400c83 @11; 0i
Debug: 773 57 riscv-013.c:407 scan():  ->  impebreak allrunning anyrunning authenticated version=3
Debug: 774 58 riscv-013.c:397 scan(): 40b r 00000000 @11 -> + 00400c83 @11; 0i
Debug: 775 58 riscv-013.c:407 scan():  ->  impebreak allrunning anyrunning authenticated version=3
Debug: 776 58 riscv-013.c:397 scan(): 40b - 00000000 @11 -> + 00400c83 @11; 0i
Debug: 777 58 riscv-013.c:407 scan():  ->  impebreak allrunning anyrunning authenticated version=3
Debug: 778 58 riscv-013.c:397 scan(): 40b r 00000000 @11 -> + 00400c83 @11; 0i
Debug: 779 58 riscv-013.c:407 scan():  ->  impebreak allrunning anyrunning authenticated version=3
Debug: 780 58 riscv-013.c:397 scan(): 40b - 00000000 @11 -> + 00400c83 @11; 0i
Debug: 781 58 riscv-013.c:407 scan():  ->  impebreak allrunning anyrunning authenticated version=3
Debug: 782 58 riscv-013.c:397 scan(): 40b r 00000000 @11 -> + 00400c83 @11; 0i
Debug: 783 58 riscv-013.c:407 scan():  ->  impebreak allrunning anyrunning authenticated version=3
Debug: 784 58 riscv-013.c:397 scan(): 40b - 00000000 @11 -> + 00400c83 @11; 0i
Debug: 785 58 riscv-013.c:407 scan():  ->  impebreak allrunning anyrunning authenticated version=3
Debug: 786 58 riscv-013.c:397 scan(): 40b r 00000000 @11 -> + 00400c83 @11; 0i
Debug: 787 58 riscv-013.c:407 scan():  ->  impebreak allrunning anyrunning authenticated version=3
Debug: 788 59 riscv-013.c:397 scan(): 40b - 00000000 @11 -> + 00400c83 @11; 0i
Debug: 789 59 riscv-013.c:407 scan():  ->  impebreak allrunning anyrunning authenticated version=3
Debug: 790 59 riscv-013.c:397 scan(): 40b r 00000000 @11 -> + 00400c83 @11; 0i
Debug: 791 59 riscv-013.c:407 scan():  ->  impebreak allrunning anyrunning authenticated version=3
Debug: 792 59 riscv-013.c:397 scan(): 40b - 00000000 @11 -> + 00400c83 @11; 0i
Debug: 793 59 riscv-013.c:407 scan():  ->  impebreak allrunning anyrunning authenticated version=3
Debug: 794 59 riscv-013.c:397 scan(): 40b r 00000000 @11 -> + 00400c83 @11; 0i
Debug: 795 59 riscv-013.c:407 scan():  ->  impebreak allrunning anyrunning authenticated version=3
Debug: 796 59 riscv-013.c:397 scan(): 40b - 00000000 @11 -> + 00400c83 @11; 0i
Debug: 797 59 riscv-013.c:407 scan():  ->  impebreak allrunning anyrunning authenticated version=3
Debug: 798 59 riscv-013.c:397 scan(): 40b r 00000000 @11 -> + 00400c83 @11; 0i
Debug: 799 59 riscv-013.c:407 scan():  ->  impebreak allrunning anyrunning authenticated version=3
Debug: 800 59 riscv-013.c:397 scan(): 40b - 00000000 @11 -> + 00400c83 @11; 0i
Debug: 801 59 riscv-013.c:407 scan():  ->  impebreak allrunning anyrunning authenticated version=3
Debug: 802 60 riscv-013.c:397 scan(): 40b r 00000000 @11 -> + 00400c83 @11; 0i
Debug: 803 60 riscv-013.c:407 scan():  ->  impebreak allrunning anyrunning authenticated version=3
Debug: 804 60 riscv-013.c:397 scan(): 40b - 00000000 @11 -> + 00400c83 @11; 0i
Debug: 805 60 riscv-013.c:407 scan():  ->  impebreak allrunning anyrunning authenticated version=3
Debug: 806 60 riscv-013.c:397 scan(): 40b r 00000000 @11 -> + 00400c83 @11; 0i
Debug: 807 60 riscv-013.c:407 scan():  ->  impebreak allrunning anyrunning authenticated version=3
Debug: 808 60 riscv-013.c:397 scan(): 40b - 00000000 @11 -> + 00400c83 @11; 0i
Debug: 809 60 riscv-013.c:407 scan():  ->  impebreak allrunning anyrunning authenticated version=3
Debug: 810 60 riscv-013.c:397 scan(): 40b r 00000000 @11 -> + 00400c83 @11; 0i
Debug: 811 60 riscv-013.c:407 scan():  ->  impebreak allrunning anyrunning authenticated version=3
Debug: 812 60 riscv-013.c:397 scan(): 40b - 00000000 @11 -> + 00400c83 @11; 0i
Debug: 813 60 riscv-013.c:407 scan():  ->  impebreak allrunning anyrunning authenticated version=3
Debug: 814 61 riscv-013.c:397 scan(): 40b r 00000000 @11 -> + 00400c83 @11; 0i
Debug: 815 61 riscv-013.c:407 scan():  ->  impebreak allrunning anyrunning authenticated version=3
Debug: 816 61 riscv-013.c:397 scan(): 40b - 00000000 @11 -> + 00400c83 @11; 0i
Debug: 817 61 riscv-013.c:407 scan():  ->  impebreak allrunning anyrunning authenticated version=3
Debug: 818 61 riscv-013.c:397 scan(): 40b r 00000000 @11 -> + 00400c83 @11; 0i
Debug: 819 61 riscv-013.c:407 scan():  ->  impebreak allrunning anyrunning authenticated version=3
Debug: 820 61 riscv-013.c:397 scan(): 40b - 00000000 @11 -> + 00400c83 @11; 0i
Debug: 821 61 riscv-013.c:407 scan():  ->  impebreak allrunning anyrunning authenticated version=3
Debug: 822 61 riscv-013.c:397 scan(): 40b r 00000000 @11 -> + 00400c83 @11; 0i
Debug: 823 61 riscv-013.c:407 scan():  ->  impebreak allrunning anyrunning authenticated version=3
Debug: 824 61 riscv-013.c:397 scan(): 40b - 00000000 @11 -> + 00400c83 @11; 0i
Debug: 825 61 riscv-013.c:407 scan():  ->  impebreak allrunning anyrunning authenticated version=3
Debug: 826 61 riscv-013.c:397 scan(): 40b r 00000000 @11 -> + 00400c83 @11; 0i
Debug: 827 61 riscv-013.c:407 scan():  ->  impebreak allrunning anyrunning authenticated version=3
Debug: 828 62 riscv-013.c:397 scan(): 40b - 00000000 @11 -> + 00400c83 @11; 0i
Debug: 829 62 riscv-013.c:407 scan():  ->  impebreak allrunning anyrunning authenticated version=3
Debug: 830 62 riscv-013.c:397 scan(): 40b r 00000000 @11 -> + 00400c83 @11; 0i
Debug: 831 62 riscv-013.c:407 scan():  ->  impebreak allrunning anyrunning authenticated version=3
Debug: 832 62 riscv-013.c:397 scan(): 40b - 00000000 @11 -> + 00400c83 @11; 0i
Debug: 833 62 riscv-013.c:407 scan():  ->  impebreak allrunning anyrunning authenticated version=3
Debug: 834 62 riscv-013.c:397 scan(): 40b r 00000000 @11 -> + 00400c83 @11; 0i
Debug: 835 62 riscv-013.c:407 scan():  ->  impebreak allrunning anyrunning authenticated version=3
Debug: 836 62 riscv-013.c:397 scan(): 40b - 00000000 @11 -> + 00400c83 @11; 0i
Debug: 837 62 riscv-013.c:407 scan():  ->  impebreak allrunning anyrunning authenticated version=3
Debug: 838 62 riscv-013.c:397 scan(): 40b r 00000000 @11 -> + 00400c83 @11; 0i
Debug: 839 62 riscv-013.c:407 scan():  ->  impebreak allrunning anyrunning authenticated version=3
Debug: 840 62 riscv-013.c:397 scan(): 40b - 00000000 @11 -> + 00400c83 @11; 0i
Debug: 841 62 riscv-013.c:407 scan():  ->  impebreak allrunning anyrunning authenticated version=3
Debug: 842 63 riscv-013.c:397 scan(): 40b r 00000000 @11 -> + 00400c83 @11; 0i
Debug: 843 63 riscv-013.c:407 scan():  ->  impebreak allrunning anyrunning authenticated version=3
Debug: 844 63 riscv-013.c:397 scan(): 40b - 00000000 @11 -> + 00400c83 @11; 0i
Debug: 845 63 riscv-013.c:407 scan():  ->  impebreak allrunning anyrunning authenticated version=3
Debug: 846 63 riscv-013.c:397 scan(): 40b r 00000000 @11 -> + 00400c83 @11; 0i
Debug: 847 63 riscv-013.c:407 scan():  ->  impebreak allrunning anyrunning authenticated version=3
Debug: 848 63 riscv-013.c:397 scan(): 40b - 00000000 @11 -> + 00430c83 @11; 0i
Debug: 849 63 riscv-013.c:407 scan():  ->  impebreak allresumeack anyresumeack allrunning anyrunning authenticated version=3
Debug: 850 63 riscv-013.c:397 scan(): 40b w 00000001 @10 -> + 00430c83 @11; 0i
Debug: 851 63 riscv-013.c:407 scan():  dmactive ->  impebreak allresumeack anyresumeack allrunning anyrunning authenticated version=3
Debug: 852 63 riscv-013.c:397 scan(): 40b - 00000000 @10 -> + 00430c83 @10; 0i
Debug: 853 63 riscv-013.c:407 scan():  ->  hartselhi=50 hartsello=67 ndmreset dmactive
Info : 854 63 riscv-013.c:1975 examine(): [serv.cpu.0] Examined RISC-V core; found 1 harts
Info : 855 63 riscv-013.c:1977 examine(): [serv.cpu.0]  XLEN=32, misa=0x40000010
User : 856 63 target.c:756 target_examine_one(): [serv.cpu.0] Target successfully examined.
Debug: 857 63 target.c:1847 target_call_event_callbacks(): target event 21 (examine-end) for core serv.cpu.0
Debug: 858 63 command.c:155 script_debug(): command - flash init
Debug: 859 63 tcl.c:1376 handle_flash_init_command(): Initializing flash devices...
Debug: 860 63 command.c:155 script_debug(): command - nand init
Debug: 861 63 tcl.c:487 handle_nand_init_command(): Initializing NAND devices...
Debug: 862 63 command.c:155 script_debug(): command - pld init
Debug: 863 63 pld.c:194 handle_pld_init_command(): Initializing PLDs...
Debug: 864 63 command.c:155 script_debug(): command - tpiu init
Info : 865 63 gdb_server.c:3836 gdb_target_start(): starting gdb server for serv.cpu.0 on 3333
Info : 866 64 server.c:297 add_service(): Listening on port 3333 for gdb connections
Debug: 867 64 command.c:155 script_debug(): command - reset
Debug: 868 64 target.c:1866 target_call_reset_callbacks(): target reset 1 (run)
Debug: 869 64 command.c:155 script_debug(): command - target names
Debug: 870 64 command.c:155 script_debug(): command - serv.cpu.0 invoke-event reset-start
Debug: 871 64 command.c:155 script_debug(): command - transport select
Debug: 872 64 command.c:155 script_debug(): command - jtag arp_init-reset
Debug: 873 64 core.c:1606 jtag_init_reset(): Initializing with hard TRST+SRST reset
Debug: 874 64 core.c:843 jtag_add_reset(): JTAG reset with TLR instead of TRST
Debug: 875 64 core.c:328 jtag_call_event_callbacks(): jtag event: TAP reset
Debug: 876 64 core.c:1509 jtag_init_inner(): Init JTAG chain
Debug: 877 64 core.c:328 jtag_call_event_callbacks(): jtag event: TAP reset
Debug: 878 64 core.c:1234 jtag_examine_chain(): DR scan interrogation for IDCODE/BYPASS
Debug: 879 64 core.c:328 jtag_call_event_callbacks(): jtag event: TAP reset
Info : 880 65 core.c:1133 jtag_examine_chain_display(): JTAG tap: serv.cpu tap/device found: 0x10001e1b (mfg: 0x70d (UEC1 - Pham Laboratory), part: 0x0001, ver: 0x1)
Debug: 881 65 core.c:1364 jtag_validate_ircapture(): IR capture validation scan
Debug: 882 65 core.c:1421 jtag_validate_ircapture(): serv.cpu: IR capture 0x01
Debug: 883 65 command.c:155 script_debug(): command - transport select
Debug: 884 65 command.c:155 script_debug(): command - serv.cpu.0 cget -chain-position
Debug: 885 65 command.c:155 script_debug(): command - jtag tapisenabled serv.cpu
Debug: 886 65 command.c:155 script_debug(): command - serv.cpu.0 invoke-event examine-start
Debug: 887 65 command.c:155 script_debug(): command - serv.cpu.0 arp_examine allow-defer
Debug: 888 65 riscv.c:1501 riscv_examine(): [serv.cpu.0] Starting examination
Debug: 889 65 riscv.c:1503 riscv_examine(): [serv.cpu.0] Target was already examined.
Debug: 890 65 command.c:155 script_debug(): command - serv.cpu.0 invoke-event examine-end
Debug: 891 65 command.c:155 script_debug(): command - serv.cpu.0 invoke-event reset-assert-pre
Debug: 892 65 command.c:155 script_debug(): command - transport select
Debug: 893 65 command.c:155 script_debug(): command - serv.cpu.0 cget -chain-position
Debug: 894 65 command.c:155 script_debug(): command - jtag tapisenabled serv.cpu
Debug: 895 65 command.c:155 script_debug(): command - serv.cpu.0 arp_reset assert 0
Debug: 896 65 target.c:2203 target_free_all_working_areas_restore(): freeing all working areas
Debug: 897 65 riscv.c:1726 riscv_assert_reset(): [serv.cpu.0] coreid: [0]
Debug: 898 65 riscv.c:4642 riscv_invalidate_register_cache(): [serv.cpu.0] Invalidating register cache.
Debug: 899 65 riscv-013.c:397 scan(): 40b w 00000003 @10 -> + 00430c83 @10; 0i
Debug: 900 65 riscv-013.c:407 scan():  ndmreset dmactive ->  hartselhi=50 hartsello=67 ndmreset dmactive
Debug: 901 65 riscv-013.c:397 scan(): 40b - 00000000 @10 -> + 00430c83 @10; 0i
Debug: 902 65 riscv-013.c:407 scan():  ->  hartselhi=50 hartsello=67 ndmreset dmactive
Debug: 903 65 riscv-013.c:4831 riscv013_invalidate_cached_debug_buffer(): [serv.cpu.0] Invalidating progbuf cache
Debug: 904 65 command.c:155 script_debug(): command - serv.cpu.0 invoke-event reset-assert-post
Debug: 905 65 command.c:155 script_debug(): command - serv.cpu.0 invoke-event reset-deassert-pre
Debug: 906 65 command.c:155 script_debug(): command - transport select
Debug: 907 65 command.c:155 script_debug(): command - serv.cpu.0 cget -chain-position
Debug: 908 65 command.c:155 script_debug(): command - jtag tapisenabled serv.cpu
Debug: 909 65 command.c:155 script_debug(): command - serv.cpu.0 arp_reset deassert 0
Debug: 910 65 target.c:2203 target_free_all_working_areas_restore(): freeing all working areas
Debug: 911 65 riscv.c:1734 riscv_deassert_reset(): [serv.cpu.0] coreid: [0]
Debug: 912 65 riscv-013.c:397 scan(): 40b w 00000001 @10 -> + 00430c83 @10; 0i
Debug: 913 65 riscv-013.c:407 scan():  dmactive ->  hartselhi=50 hartsello=67 ndmreset dmactive
Debug: 914 66 riscv-013.c:397 scan(): 40b - 00000000 @10 -> + 00430c83 @10; 0i
Debug: 915 66 riscv-013.c:407 scan():  ->  hartselhi=50 hartsello=67 ndmreset dmactive
Debug: 916 66 riscv-013.c:2679 deassert_reset(): [serv.cpu.0] Waiting for hart to come out of reset.
Debug: 917 66 riscv-013.c:397 scan(): 40b r 00000000 @11 -> + 00430c83 @10; 0i
Debug: 918 66 riscv-013.c:407 scan():  ->  hartselhi=50 hartsello=67 ndmreset dmactive
Debug: 919 66 riscv-013.c:397 scan(): 40b - 00000000 @11 -> + 004c0c83 @11; 0i
Debug: 920 66 riscv-013.c:407 scan():  ->  impebreak allhavereset anyhavereset allrunning anyrunning authenticated version=3
Debug: 921 66 riscv-013.c:397 scan(): 40b w 10000001 @10 -> + 004c0c83 @11; 0i
Debug: 922 66 riscv-013.c:407 scan():  dmactive ackhavereset ->  impebreak allhavereset anyhavereset allrunning anyrunning authenticated version=3
Debug: 923 66 riscv-013.c:397 scan(): 40b - 00000000 @10 -> + 004c0c83 @10; 0i
Debug: 924 66 riscv-013.c:407 scan():  ->  hartselhi=50 hartsello=76 ndmreset dmactive
Debug: 925 66 command.c:155 script_debug(): command - serv.cpu.0 invoke-event reset-deassert-post
Debug: 926 66 command.c:155 script_debug(): command - serv.cpu.0 invoke-event reset-end
Debug: 927 66 riscv.c:2898 riscv_openocd_poll(): [serv.cpu.0] Polling all harts.
Debug: 928 66 riscv.c:2721 riscv_poll_hart(): [serv.cpu.0] polling, target->state=1
Debug: 929 66 riscv-013.c:397 scan(): 40b r 00000000 @11 -> + 004c0c83 @10; 0i
Debug: 930 66 riscv-013.c:407 scan():  ->  hartselhi=50 hartsello=76 ndmreset dmactive
Debug: 931 66 riscv-013.c:397 scan(): 40b - 00000000 @11 -> + 00400c83 @11; 0i
Debug: 932 66 riscv-013.c:407 scan():  ->  impebreak allrunning anyrunning authenticated version=3
Debug: 933 66 riscv.c:2954 riscv_openocd_poll(): [serv.cpu.0] should_remain_halted=0, should_resume=0
Debug: 934 66 riscv-013.c:1603 halt_set_dcsr_ebreak(): [serv.cpu.0] Halt to set DCSR.ebreak*
Debug: 935 66 riscv-013.c:4668 riscv013_halt_go(): [serv.cpu.0] halting hart
Debug: 936 66 riscv-013.c:397 scan(): 40b w 80000001 @10 -> + 00400c83 @11; 0i
Debug: 937 66 riscv-013.c:407 scan(): haltreq dmactive ->  impebreak allrunning anyrunning authenticated version=3
Debug: 938 67 riscv-013.c:397 scan(): 40b - 00000000 @10 -> + 00400c83 @10; 0i
Debug: 939 67 riscv-013.c:407 scan():  ->  hartselhi=50 hartsello=64 ndmreset dmactive
Debug: 940 67 riscv-013.c:397 scan(): 40b r 00000000 @11 -> + 00400c83 @10; 0i
Debug: 941 67 riscv-013.c:407 scan():  ->  hartselhi=50 hartsello=64 ndmreset dmactive
Debug: 942 67 riscv-013.c:397 scan(): 40b - 00000000 @11 -> + 00400383 @11; 0i
Debug: 943 67 riscv-013.c:407 scan():  ->  impebreak allhalted anyhalted authenticated version=3
Debug: 944 67 riscv-013.c:397 scan(): 40b w 00000001 @10 -> + 00400383 @11; 0i
Debug: 945 67 riscv-013.c:407 scan():  dmactive ->  impebreak allhalted anyhalted authenticated version=3
Debug: 946 67 riscv-013.c:397 scan(): 40b - 00000000 @10 -> + 00400383 @10; 0i
Debug: 947 67 riscv-013.c:407 scan():  ->  hartselhi=14 hartsello=64 ndmreset dmactive
Debug: 948 67 riscv-013.c:1575 set_dcsr_ebreak(): [serv.cpu.0] Set dcsr.ebreak*
Debug: 949 67 riscv.c:4825 riscv_get_register(): [serv.cpu.0] Reading dcsr from target
Debug: 950 67 riscv-013.c:4513 riscv013_get_register(): [serv.cpu.0] reading register dcsr
Debug: 951 67 riscv-013.c:1525 register_read_direct(): [serv.cpu.0] Reading dcsr
Debug: 952 67 riscv.c:4861 riscv_save_register(): [serv.cpu.0] Saving fp
Debug: 953 67 riscv.c:4825 riscv_get_register(): [serv.cpu.0] Reading fp from target
Debug: 954 67 riscv-013.c:4513 riscv013_get_register(): [serv.cpu.0] reading register s0
Debug: 955 67 riscv-013.c:1525 register_read_direct(): [serv.cpu.0] Reading s0
Debug: 956 67 riscv-013.c:783 execute_abstract_command(): [serv.cpu.0] command=0x221008; access register, size=32, postexec=0, transfer=1, write=0, regno=0x1008
Debug: 957 67 riscv-013.c:397 scan(): 40b w 00221008 @17 -> + 00400383 @10; 0i
Debug: 958 67 riscv-013.c:407 scan():  ->  hartselhi=14 hartsello=64 ndmreset dmactive
Debug: 959 67 riscv-013.c:397 scan(): 40b r 00000000 @16 -> + 00400383 @17; 0i
Debug: 960 67 riscv-013.c:397 scan(): 40b - 00000000 @16 -> + 02000801 @16; 0i
Debug: 961 67 riscv-013.c:407 scan():  ->  progbufsize=2 datacount=1
Debug: 962 68 riscv-013.c:397 scan(): 40b r 00000000 @04 -> + 02000801 @16; 0i
Debug: 963 68 riscv-013.c:407 scan():  ->  progbufsize=2 datacount=1
Debug: 964 68 riscv-013.c:397 scan(): 40b - 00000000 @04 -> + 40000010 @04; 0i
Debug: 965 68 riscv-013.c:1544 register_read_direct(): [serv.cpu.0] s0 = 0x40000010
Debug: 966 68 riscv.c:4833 riscv_get_register(): [serv.cpu.0] Read fp: 0x40000010
Debug: 967 68 program.c:35 riscv_program_write(): [serv.cpu.0] debug_buffer[00] = DASM(0x7b002473)
Debug: 968 68 riscv-013.c:397 scan(): 40b w 7b002473 @20 -> + 40000010 @04; 0i
Debug: 969 68 riscv-013.c:397 scan(): 40b - 00000000 @20 -> + 40000010 @20; 0i
Debug: 970 68 program.c:35 riscv_program_write(): [serv.cpu.0] debug_buffer[01] = DASM(0x00100073)
Debug: 971 68 riscv-013.c:397 scan(): 40b w 00100073 @21 -> + 40000010 @20; 0i
Debug: 972 68 riscv-013.c:397 scan(): 40b - 00000000 @21 -> + 40000010 @21; 0i
Debug: 973 68 riscv-013.c:783 execute_abstract_command(): [serv.cpu.0] command=0x241000; access register, size=32, postexec=1, transfer=0, write=0, regno=0x1000
Debug: 974 68 riscv-013.c:397 scan(): 40b w 00241000 @17 -> + 40000010 @21; 0i
Debug: 975 68 riscv-013.c:397 scan(): 40b r 00000000 @16 -> + 40000010 @17; 0i
Debug: 976 68 riscv-013.c:407 scan():  ->  cmdtype=64
Debug: 977 68 riscv-013.c:397 scan(): 40b - 00000000 @16 -> + 02000801 @16; 0i
Debug: 978 68 riscv-013.c:407 scan():  ->  progbufsize=2 datacount=1
Debug: 979 69 riscv-013.c:783 execute_abstract_command(): [serv.cpu.0] command=0x221008; access register, size=32, postexec=0, transfer=1, write=0, regno=0x1008
Debug: 980 69 riscv-013.c:397 scan(): 40b w 00221008 @17 -> + 02000801 @16; 0i
Debug: 981 69 riscv-013.c:407 scan():  ->  progbufsize=2 datacount=1
Debug: 982 69 riscv-013.c:397 scan(): 40b r 00000000 @16 -> + 02000801 @17; 0i
Debug: 983 69 riscv-013.c:407 scan():  ->  cmdtype=2
Debug: 984 69 riscv-013.c:397 scan(): 40b - 00000000 @16 -> + 02000801 @16; 0i
Debug: 985 69 riscv-013.c:407 scan():  ->  progbufsize=2 datacount=1
Debug: 986 69 riscv-013.c:397 scan(): 40b r 00000000 @04 -> + 02000801 @16; 0i
Debug: 987 69 riscv-013.c:407 scan():  ->  progbufsize=2 datacount=1
Debug: 988 69 riscv-013.c:397 scan(): 40b - 00000000 @04 -> + 40008000 @04; 0i
Debug: 989 69 riscv-013.c:1544 register_read_direct(): [serv.cpu.0] dcsr = 0x40008000
Debug: 990 69 riscv.c:4833 riscv_get_register(): [serv.cpu.0] Read dcsr: 0x40008000
Debug: 991 69 riscv-013.c:4906 riscv013_step_or_resume_current_hart(): [serv.cpu.0] resuming (for step?=0)
Debug: 992 69 riscv.c:1557 riscv_flush_registers(): [serv.cpu.0] Flushing register cache
Debug: 993 69 riscv.c:1568 riscv_flush_registers(): [serv.cpu.0] fp is dirty; write back 0x40000010
Debug: 994 69 riscv-013.c:4542 riscv013_set_register(): [serv.cpu.0] writing 0x40000010 to register s0
Debug: 995 69 riscv-013.c:1496 register_write_direct(): [serv.cpu.0] Writing 0x40000010 to s0
Debug: 996 69 riscv-013.c:397 scan(): 40b w 40000010 @04 -> + 40008000 @04; 0i
Debug: 997 69 riscv-013.c:397 scan(): 40b - 00000000 @04 -> + 40008000 @04; 0i
Debug: 998 69 riscv-013.c:783 execute_abstract_command(): [serv.cpu.0] command=0x231008; access register, size=32, postexec=0, transfer=1, write=1, regno=0x1008
Debug: 999 69 riscv-013.c:397 scan(): 40b w 00231008 @17 -> + 40008000 @04; 0i
Debug: 1000 70 riscv-013.c:397 scan(): 40b r 00000000 @16 -> + 40008000 @17; 0i
Debug: 1001 70 riscv-013.c:407 scan():  ->  cmdtype=64
Debug: 1002 70 riscv-013.c:397 scan(): 40b - 00000000 @16 -> + 02000801 @16; 0i
Debug: 1003 70 riscv-013.c:407 scan():  ->  progbufsize=2 datacount=1
Debug: 1004 70 riscv-013.c:1515 register_write_direct(): [serv.cpu.0] s0 <- 0x40000010
Debug: 1005 70 riscv.c:1575 riscv_flush_registers(): [serv.cpu.0] Flush of register cache completed
Debug: 1006 70 riscv-013.c:397 scan(): 40b w 40000001 @10 -> + 02000801 @16; 0i
Debug: 1007 70 riscv-013.c:407 scan():  resumereq dmactive ->  progbufsize=2 datacount=1
Debug: 1008 70 riscv-013.c:397 scan(): 40b - 00000000 @10 -> + 02000801 @10; 0i
Debug: 1009 70 riscv-013.c:407 scan():  ->  hartselhi=32 hartsello=512 dmactive
Debug: 1010 70 riscv-013.c:397 scan(): 40b r 00000000 @11 -> + 02000801 @10; 0i
Debug: 1011 70 riscv-013.c:407 scan():  ->  hartselhi=32 hartsello=512 dmactive
Debug: 1012 70 riscv-013.c:397 scan(): 40b - 00000000 @11 -> + 00400c83 @11; 0i
Debug: 1013 70 riscv-013.c:407 scan():  ->  impebreak allrunning anyrunning authenticated version=3
Debug: 1014 70 riscv-013.c:397 scan(): 40b r 00000000 @11 -> + 00400c83 @11; 0i
Debug: 1015 70 riscv-013.c:407 scan():  ->  impebreak allrunning anyrunning authenticated version=3
Debug: 1016 71 riscv-013.c:397 scan(): 40b - 00000000 @11 -> + 00400c83 @11; 0i
Debug: 1017 71 riscv-013.c:407 scan():  ->  impebreak allrunning anyrunning authenticated version=3
Debug: 1018 71 riscv-013.c:397 scan(): 40b r 00000000 @11 -> + 00400c83 @11; 0i
Debug: 1019 71 riscv-013.c:407 scan():  ->  impebreak allrunning anyrunning authenticated version=3
Debug: 1020 71 riscv-013.c:397 scan(): 40b - 00000000 @11 -> + 00400c83 @11; 0i
Debug: 1021 71 riscv-013.c:407 scan():  ->  impebreak allrunning anyrunning authenticated version=3
Debug: 1022 71 riscv-013.c:397 scan(): 40b r 00000000 @11 -> + 00400c83 @11; 0i
Debug: 1023 71 riscv-013.c:407 scan():  ->  impebreak allrunning anyrunning authenticated version=3
Debug: 1024 71 riscv-013.c:397 scan(): 40b - 00000000 @11 -> + 00400c83 @11; 0i
Debug: 1025 71 riscv-013.c:407 scan():  ->  impebreak allrunning anyrunning authenticated version=3
Debug: 1026 71 riscv-013.c:397 scan(): 40b r 00000000 @11 -> + 00400c83 @11; 0i
Debug: 1027 71 riscv-013.c:407 scan():  ->  impebreak allrunning anyrunning authenticated version=3
Debug: 1028 71 riscv-013.c:397 scan(): 40b - 00000000 @11 -> + 00400c83 @11; 0i
Debug: 1029 71 riscv-013.c:407 scan():  ->  impebreak allrunning anyrunning authenticated version=3
Debug: 1030 72 riscv-013.c:397 scan(): 40b r 00000000 @11 -> + 00400c83 @11; 0i
Debug: 1031 72 riscv-013.c:407 scan():  ->  impebreak allrunning anyrunning authenticated version=3
Debug: 1032 72 riscv-013.c:397 scan(): 40b - 00000000 @11 -> + 00400c83 @11; 0i
Debug: 1033 72 riscv-013.c:407 scan():  ->  impebreak allrunning anyrunning authenticated version=3
Debug: 1034 72 riscv-013.c:397 scan(): 40b r 00000000 @11 -> + 00400c83 @11; 0i
Debug: 1035 72 riscv-013.c:407 scan():  ->  impebreak allrunning anyrunning authenticated version=3
Debug: 1036 72 riscv-013.c:397 scan(): 40b - 00000000 @11 -> + 00400c83 @11; 0i
Debug: 1037 72 riscv-013.c:407 scan():  ->  impebreak allrunning anyrunning authenticated version=3
Debug: 1038 72 riscv-013.c:397 scan(): 40b r 00000000 @11 -> + 00400c83 @11; 0i
Debug: 1039 72 riscv-013.c:407 scan():  ->  impebreak allrunning anyrunning authenticated version=3
Debug: 1040 72 riscv-013.c:397 scan(): 40b - 00000000 @11 -> + 00400c83 @11; 0i
Debug: 1041 72 riscv-013.c:407 scan():  ->  impebreak allrunning anyrunning authenticated version=3
Debug: 1042 73 riscv-013.c:397 scan(): 40b r 00000000 @11 -> + 00400c83 @11; 0i
Debug: 1043 73 riscv-013.c:407 scan():  ->  impebreak allrunning anyrunning authenticated version=3
Debug: 1044 73 riscv-013.c:397 scan(): 40b - 00000000 @11 -> + 00400c83 @11; 0i
Debug: 1045 73 riscv-013.c:407 scan():  ->  impebreak allrunning anyrunning authenticated version=3
Debug: 1046 73 riscv-013.c:397 scan(): 40b r 00000000 @11 -> + 00400c83 @11; 0i
Debug: 1047 73 riscv-013.c:407 scan():  ->  impebreak allrunning anyrunning authenticated version=3
Debug: 1048 73 riscv-013.c:397 scan(): 40b - 00000000 @11 -> + 00400c83 @11; 0i
Debug: 1049 73 riscv-013.c:407 scan():  ->  impebreak allrunning anyrunning authenticated version=3
Debug: 1050 73 riscv-013.c:397 scan(): 40b r 00000000 @11 -> + 00400c83 @11; 0i
Debug: 1051 73 riscv-013.c:407 scan():  ->  impebreak allrunning anyrunning authenticated version=3
Debug: 1052 73 riscv-013.c:397 scan(): 40b - 00000000 @11 -> + 00400c83 @11; 0i
Debug: 1053 73 riscv-013.c:407 scan():  ->  impebreak allrunning anyrunning authenticated version=3
Debug: 1054 73 riscv-013.c:397 scan(): 40b r 00000000 @11 -> + 00400c83 @11; 0i
Debug: 1055 73 riscv-013.c:407 scan():  ->  impebreak allrunning anyrunning authenticated version=3
Debug: 1056 74 riscv-013.c:397 scan(): 40b - 00000000 @11 -> + 00400c83 @11; 0i
Debug: 1057 74 riscv-013.c:407 scan():  ->  impebreak allrunning anyrunning authenticated version=3
Debug: 1058 74 riscv-013.c:397 scan(): 40b r 00000000 @11 -> + 00400c83 @11; 0i
Debug: 1059 74 riscv-013.c:407 scan():  ->  impebreak allrunning anyrunning authenticated version=3
Debug: 1060 74 riscv-013.c:397 scan(): 40b - 00000000 @11 -> + 00400c83 @11; 0i
Debug: 1061 74 riscv-013.c:407 scan():  ->  impebreak allrunning anyrunning authenticated version=3
Debug: 1062 74 riscv-013.c:397 scan(): 40b r 00000000 @11 -> + 00400c83 @11; 0i
Debug: 1063 74 riscv-013.c:407 scan():  ->  impebreak allrunning anyrunning authenticated version=3
Debug: 1064 74 riscv-013.c:397 scan(): 40b - 00000000 @11 -> + 00400c83 @11; 0i
Debug: 1065 74 riscv-013.c:407 scan():  ->  impebreak allrunning anyrunning authenticated version=3
Debug: 1066 74 riscv-013.c:397 scan(): 40b r 00000000 @11 -> + 00400c83 @11; 0i
Debug: 1067 74 riscv-013.c:407 scan():  ->  impebreak allrunning anyrunning authenticated version=3
Debug: 1068 74 riscv-013.c:397 scan(): 40b - 00000000 @11 -> + 00400c83 @11; 0i
Debug: 1069 74 riscv-013.c:407 scan():  ->  impebreak allrunning anyrunning authenticated version=3
Debug: 1070 75 riscv-013.c:397 scan(): 40b r 00000000 @11 -> + 00400c83 @11; 0i
Debug: 1071 75 riscv-013.c:407 scan():  ->  impebreak allrunning anyrunning authenticated version=3
Debug: 1072 75 riscv-013.c:397 scan(): 40b - 00000000 @11 -> + 00400c83 @11; 0i
Debug: 1073 75 riscv-013.c:407 scan():  ->  impebreak allrunning anyrunning authenticated version=3
Debug: 1074 75 riscv-013.c:397 scan(): 40b r 00000000 @11 -> + 00400c83 @11; 0i
Debug: 1075 75 riscv-013.c:407 scan():  ->  impebreak allrunning anyrunning authenticated version=3
Debug: 1076 75 riscv-013.c:397 scan(): 40b - 00000000 @11 -> + 00400c83 @11; 0i
Debug: 1077 75 riscv-013.c:407 scan():  ->  impebreak allrunning anyrunning authenticated version=3
Debug: 1078 75 riscv-013.c:397 scan(): 40b r 00000000 @11 -> + 00400c83 @11; 0i
Debug: 1079 75 riscv-013.c:407 scan():  ->  impebreak allrunning anyrunning authenticated version=3
Debug: 1080 75 riscv-013.c:397 scan(): 40b - 00000000 @11 -> + 00400c83 @11; 0i
Debug: 1081 75 riscv-013.c:407 scan():  ->  impebreak allrunning anyrunning authenticated version=3
Debug: 1082 75 riscv-013.c:397 scan(): 40b r 00000000 @11 -> + 00400c83 @11; 0i
Debug: 1083 75 riscv-013.c:407 scan():  ->  impebreak allrunning anyrunning authenticated version=3
Debug: 1084 75 riscv-013.c:397 scan(): 40b - 00000000 @11 -> + 00400c83 @11; 0i
Debug: 1085 75 riscv-013.c:407 scan():  ->  impebreak allrunning anyrunning authenticated version=3
Debug: 1086 76 riscv-013.c:397 scan(): 40b r 00000000 @11 -> + 00400c83 @11; 0i
Debug: 1087 76 riscv-013.c:407 scan():  ->  impebreak allrunning anyrunning authenticated version=3
Debug: 1088 76 riscv-013.c:397 scan(): 40b - 00000000 @11 -> + 00400c83 @11; 0i
Debug: 1089 76 riscv-013.c:407 scan():  ->  impebreak allrunning anyrunning authenticated version=3
Debug: 1090 76 riscv-013.c:397 scan(): 40b r 00000000 @11 -> + 00400c83 @11; 0i
Debug: 1091 76 riscv-013.c:407 scan():  ->  impebreak allrunning anyrunning authenticated version=3
Debug: 1092 76 riscv-013.c:397 scan(): 40b - 00000000 @11 -> + 00400c83 @11; 0i
Debug: 1093 76 riscv-013.c:407 scan():  ->  impebreak allrunning anyrunning authenticated version=3
Debug: 1094 76 riscv-013.c:397 scan(): 40b r 00000000 @11 -> + 00400c83 @11; 0i
Debug: 1095 76 riscv-013.c:407 scan():  ->  impebreak allrunning anyrunning authenticated version=3
Debug: 1096 76 riscv-013.c:397 scan(): 40b - 00000000 @11 -> + 00400c83 @11; 0i
Debug: 1097 76 riscv-013.c:407 scan():  ->  impebreak allrunning anyrunning authenticated version=3
Debug: 1098 76 riscv-013.c:397 scan(): 40b r 00000000 @11 -> + 00400c83 @11; 0i
Debug: 1099 76 riscv-013.c:407 scan():  ->  impebreak allrunning anyrunning authenticated version=3
Debug: 1100 76 riscv-013.c:397 scan(): 40b - 00000000 @11 -> + 00400c83 @11; 0i
Debug: 1101 76 riscv-013.c:407 scan():  ->  impebreak allrunning anyrunning authenticated version=3
Debug: 1102 77 riscv-013.c:397 scan(): 40b r 00000000 @11 -> + 00400c83 @11; 0i
Debug: 1103 77 riscv-013.c:407 scan():  ->  impebreak allrunning anyrunning authenticated version=3
Debug: 1104 77 riscv-013.c:397 scan(): 40b - 00000000 @11 -> + 00400c83 @11; 0i
Debug: 1105 77 riscv-013.c:407 scan():  ->  impebreak allrunning anyrunning authenticated version=3
Debug: 1106 77 riscv-013.c:397 scan(): 40b r 00000000 @11 -> + 00400c83 @11; 0i
Debug: 1107 77 riscv-013.c:407 scan():  ->  impebreak allrunning anyrunning authenticated version=3
Debug: 1108 77 riscv-013.c:397 scan(): 40b - 00000000 @11 -> + 00400c83 @11; 0i
Debug: 1109 77 riscv-013.c:407 scan():  ->  impebreak allrunning anyrunning authenticated version=3
Debug: 1110 77 riscv-013.c:397 scan(): 40b r 00000000 @11 -> + 00400c83 @11; 0i
Debug: 1111 77 riscv-013.c:407 scan():  ->  impebreak allrunning anyrunning authenticated version=3
Debug: 1112 77 riscv-013.c:397 scan(): 40b - 00000000 @11 -> + 00400c83 @11; 0i
Debug: 1113 77 riscv-013.c:407 scan():  ->  impebreak allrunning anyrunning authenticated version=3
Debug: 1114 77 riscv-013.c:397 scan(): 40b r 00000000 @11 -> + 00400c83 @11; 0i
Debug: 1115 77 riscv-013.c:407 scan():  ->  impebreak allrunning anyrunning authenticated version=3
Debug: 1116 77 riscv-013.c:397 scan(): 40b - 00000000 @11 -> + 00400c83 @11; 0i
Debug: 1117 77 riscv-013.c:407 scan():  ->  impebreak allrunning anyrunning authenticated version=3
Debug: 1118 78 riscv-013.c:397 scan(): 40b r 00000000 @11 -> + 00400c83 @11; 0i
Debug: 1119 78 riscv-013.c:407 scan():  ->  impebreak allrunning anyrunning authenticated version=3
Debug: 1120 78 riscv-013.c:397 scan(): 40b - 00000000 @11 -> + 00400c83 @11; 0i
Debug: 1121 78 riscv-013.c:407 scan():  ->  impebreak allrunning anyrunning authenticated version=3
Debug: 1122 78 riscv-013.c:397 scan(): 40b r 00000000 @11 -> + 00400c83 @11; 0i
Debug: 1123 78 riscv-013.c:407 scan():  ->  impebreak allrunning anyrunning authenticated version=3
Debug: 1124 78 riscv-013.c:397 scan(): 40b - 00000000 @11 -> + 00400c83 @11; 0i
Debug: 1125 78 riscv-013.c:407 scan():  ->  impebreak allrunning anyrunning authenticated version=3
Debug: 1126 78 riscv-013.c:397 scan(): 40b r 00000000 @11 -> + 00400c83 @11; 0i
Debug: 1127 78 riscv-013.c:407 scan():  ->  impebreak allrunning anyrunning authenticated version=3
Debug: 1128 78 riscv-013.c:397 scan(): 40b - 00000000 @11 -> + 00400c83 @11; 0i
Debug: 1129 78 riscv-013.c:407 scan():  ->  impebreak allrunning anyrunning authenticated version=3
Debug: 1130 78 riscv-013.c:397 scan(): 40b r 00000000 @11 -> + 00400c83 @11; 0i
Debug: 1131 78 riscv-013.c:407 scan():  ->  impebreak allrunning anyrunning authenticated version=3
Debug: 1132 78 riscv-013.c:397 scan(): 40b - 00000000 @11 -> + 00400c83 @11; 0i
Debug: 1133 78 riscv-013.c:407 scan():  ->  impebreak allrunning anyrunning authenticated version=3
Debug: 1134 79 riscv-013.c:397 scan(): 40b r 00000000 @11 -> + 00400c83 @11; 0i
Debug: 1135 79 riscv-013.c:407 scan():  ->  impebreak allrunning anyrunning authenticated version=3
Debug: 1136 79 riscv-013.c:397 scan(): 40b - 00000000 @11 -> + 00400c83 @11; 0i
Debug: 1137 79 riscv-013.c:407 scan():  ->  impebreak allrunning anyrunning authenticated version=3
Debug: 1138 79 riscv-013.c:397 scan(): 40b r 00000000 @11 -> + 00400c83 @11; 0i
Debug: 1139 79 riscv-013.c:407 scan():  ->  impebreak allrunning anyrunning authenticated version=3
Debug: 1140 79 riscv-013.c:397 scan(): 40b - 00000000 @11 -> + 00400c83 @11; 0i
Debug: 1141 79 riscv-013.c:407 scan():  ->  impebreak allrunning anyrunning authenticated version=3
Debug: 1142 79 riscv-013.c:397 scan(): 40b r 00000000 @11 -> + 00400c83 @11; 0i
Debug: 1143 79 riscv-013.c:407 scan():  ->  impebreak allrunning anyrunning authenticated version=3
Debug: 1144 79 riscv-013.c:397 scan(): 40b - 00000000 @11 -> + 00400c83 @11; 0i
Debug: 1145 79 riscv-013.c:407 scan():  ->  impebreak allrunning anyrunning authenticated version=3
Debug: 1146 79 riscv-013.c:397 scan(): 40b r 00000000 @11 -> + 00400c83 @11; 0i
Debug: 1147 79 riscv-013.c:407 scan():  ->  impebreak allrunning anyrunning authenticated version=3
Debug: 1148 79 riscv-013.c:397 scan(): 40b - 00000000 @11 -> + 00400c83 @11; 0i
Debug: 1149 79 riscv-013.c:407 scan():  ->  impebreak allrunning anyrunning authenticated version=3
Debug: 1150 80 riscv-013.c:397 scan(): 40b r 00000000 @11 -> + 00400c83 @11; 0i
Debug: 1151 80 riscv-013.c:407 scan():  ->  impebreak allrunning anyrunning authenticated version=3
Debug: 1152 80 riscv-013.c:397 scan(): 40b - 00000000 @11 -> + 00400c83 @11; 0i
Debug: 1153 80 riscv-013.c:407 scan():  ->  impebreak allrunning anyrunning authenticated version=3
Debug: 1154 80 riscv-013.c:397 scan(): 40b r 00000000 @11 -> + 00400c83 @11; 0i
Debug: 1155 80 riscv-013.c:407 scan():  ->  impebreak allrunning anyrunning authenticated version=3
Debug: 1156 80 riscv-013.c:397 scan(): 40b - 00000000 @11 -> + 00400c83 @11; 0i
Debug: 1157 80 riscv-013.c:407 scan():  ->  impebreak allrunning anyrunning authenticated version=3
Debug: 1158 80 riscv-013.c:397 scan(): 40b r 00000000 @11 -> + 00400c83 @11; 0i
Debug: 1159 80 riscv-013.c:407 scan():  ->  impebreak allrunning anyrunning authenticated version=3
Debug: 1160 80 riscv-013.c:397 scan(): 40b - 00000000 @11 -> + 00400c83 @11; 0i
Debug: 1161 80 riscv-013.c:407 scan():  ->  impebreak allrunning anyrunning authenticated version=3
Debug: 1162 80 riscv-013.c:397 scan(): 40b r 00000000 @11 -> + 00400c83 @11; 0i
Debug: 1163 80 riscv-013.c:407 scan():  ->  impebreak allrunning anyrunning authenticated version=3
Debug: 1164 80 riscv-013.c:397 scan(): 40b - 00000000 @11 -> + 00400c83 @11; 0i
Debug: 1165 80 riscv-013.c:407 scan():  ->  impebreak allrunning anyrunning authenticated version=3
Debug: 1166 81 riscv-013.c:397 scan(): 40b r 00000000 @11 -> + 00400c83 @11; 0i
Debug: 1167 81 riscv-013.c:407 scan():  ->  impebreak allrunning anyrunning authenticated version=3
Debug: 1168 81 riscv-013.c:397 scan(): 40b - 00000000 @11 -> + 00400c83 @11; 0i
Debug: 1169 81 riscv-013.c:407 scan():  ->  impebreak allrunning anyrunning authenticated version=3
Debug: 1170 81 riscv-013.c:397 scan(): 40b r 00000000 @11 -> + 00400c83 @11; 0i
Debug: 1171 81 riscv-013.c:407 scan():  ->  impebreak allrunning anyrunning authenticated version=3
Debug: 1172 81 riscv-013.c:397 scan(): 40b - 00000000 @11 -> + 00400c83 @11; 0i
Debug: 1173 81 riscv-013.c:407 scan():  ->  impebreak allrunning anyrunning authenticated version=3
Debug: 1174 81 riscv-013.c:397 scan(): 40b r 00000000 @11 -> + 00400c83 @11; 0i
Debug: 1175 81 riscv-013.c:407 scan():  ->  impebreak allrunning anyrunning authenticated version=3
Debug: 1176 81 riscv-013.c:397 scan(): 40b - 00000000 @11 -> + 00400c83 @11; 0i
Debug: 1177 81 riscv-013.c:407 scan():  ->  impebreak allrunning anyrunning authenticated version=3
Debug: 1178 81 riscv-013.c:397 scan(): 40b r 00000000 @11 -> + 00400c83 @11; 0i
Debug: 1179 81 riscv-013.c:407 scan():  ->  impebreak allrunning anyrunning authenticated version=3
Debug: 1180 81 riscv-013.c:397 scan(): 40b - 00000000 @11 -> + 00400c83 @11; 0i
Debug: 1181 81 riscv-013.c:407 scan():  ->  impebreak allrunning anyrunning authenticated version=3
Debug: 1182 82 riscv-013.c:397 scan(): 40b r 00000000 @11 -> + 00400c83 @11; 0i
Debug: 1183 82 riscv-013.c:407 scan():  ->  impebreak allrunning anyrunning authenticated version=3
Debug: 1184 82 riscv-013.c:397 scan(): 40b - 00000000 @11 -> + 00400c83 @11; 0i
Debug: 1185 82 riscv-013.c:407 scan():  ->  impebreak allrunning anyrunning authenticated version=3
Debug: 1186 82 riscv-013.c:397 scan(): 40b r 00000000 @11 -> + 00400c83 @11; 0i
Debug: 1187 82 riscv-013.c:407 scan():  ->  impebreak allrunning anyrunning authenticated version=3
Debug: 1188 82 riscv-013.c:397 scan(): 40b - 00000000 @11 -> + 00400c83 @11; 0i
Debug: 1189 82 riscv-013.c:407 scan():  ->  impebreak allrunning anyrunning authenticated version=3
Debug: 1190 82 riscv-013.c:397 scan(): 40b r 00000000 @11 -> + 00400c83 @11; 0i
Debug: 1191 82 riscv-013.c:407 scan():  ->  impebreak allrunning anyrunning authenticated version=3
Debug: 1192 82 riscv-013.c:397 scan(): 40b - 00000000 @11 -> + 00400c83 @11; 0i
Debug: 1193 82 riscv-013.c:407 scan():  ->  impebreak allrunning anyrunning authenticated version=3
Debug: 1194 82 riscv-013.c:397 scan(): 40b r 00000000 @11 -> + 00400c83 @11; 0i
Debug: 1195 82 riscv-013.c:407 scan():  ->  impebreak allrunning anyrunning authenticated version=3
Debug: 1196 82 riscv-013.c:397 scan(): 40b - 00000000 @11 -> + 00400c83 @11; 0i
Debug: 1197 82 riscv-013.c:407 scan():  ->  impebreak allrunning anyrunning authenticated version=3
Debug: 1198 83 riscv-013.c:397 scan(): 40b r 00000000 @11 -> + 00400c83 @11; 0i
Debug: 1199 83 riscv-013.c:407 scan():  ->  impebreak allrunning anyrunning authenticated version=3
Debug: 1200 83 riscv-013.c:397 scan(): 40b - 00000000 @11 -> + 00400c83 @11; 0i
Debug: 1201 83 riscv-013.c:407 scan():  ->  impebreak allrunning anyrunning authenticated version=3
Debug: 1202 83 riscv-013.c:397 scan(): 40b r 00000000 @11 -> + 00400c83 @11; 0i
Debug: 1203 83 riscv-013.c:407 scan():  ->  impebreak allrunning anyrunning authenticated version=3
Debug: 1204 83 riscv-013.c:397 scan(): 40b - 00000000 @11 -> + 00400c83 @11; 0i
Debug: 1205 83 riscv-013.c:407 scan():  ->  impebreak allrunning anyrunning authenticated version=3
Debug: 1206 83 riscv-013.c:397 scan(): 40b r 00000000 @11 -> + 00400c83 @11; 0i
Debug: 1207 83 riscv-013.c:407 scan():  ->  impebreak allrunning anyrunning authenticated version=3
Debug: 1208 83 riscv-013.c:397 scan(): 40b - 00000000 @11 -> + 00400c83 @11; 0i
Debug: 1209 83 riscv-013.c:407 scan():  ->  impebreak allrunning anyrunning authenticated version=3
Debug: 1210 83 riscv-013.c:397 scan(): 40b r 00000000 @11 -> + 00400c83 @11; 0i
Debug: 1211 83 riscv-013.c:407 scan():  ->  impebreak allrunning anyrunning authenticated version=3
Debug: 1212 84 riscv-013.c:397 scan(): 40b - 00000000 @11 -> + 00400c83 @11; 0i
Debug: 1213 84 riscv-013.c:407 scan():  ->  impebreak allrunning anyrunning authenticated version=3
Debug: 1214 84 riscv-013.c:397 scan(): 40b r 00000000 @11 -> + 00400c83 @11; 0i
Debug: 1215 84 riscv-013.c:407 scan():  ->  impebreak allrunning anyrunning authenticated version=3
Debug: 1216 84 riscv-013.c:397 scan(): 40b - 00000000 @11 -> + 00400c83 @11; 0i
Debug: 1217 84 riscv-013.c:407 scan():  ->  impebreak allrunning anyrunning authenticated version=3
Debug: 1218 84 riscv-013.c:397 scan(): 40b r 00000000 @11 -> + 00400c83 @11; 0i
Debug: 1219 84 riscv-013.c:407 scan():  ->  impebreak allrunning anyrunning authenticated version=3
Debug: 1220 84 riscv-013.c:397 scan(): 40b - 00000000 @11 -> + 00400c83 @11; 0i
Debug: 1221 84 riscv-013.c:407 scan():  ->  impebreak allrunning anyrunning authenticated version=3
Debug: 1222 84 riscv-013.c:397 scan(): 40b r 00000000 @11 -> + 00400c83 @11; 0i
Debug: 1223 84 riscv-013.c:407 scan():  ->  impebreak allrunning anyrunning authenticated version=3
Debug: 1224 84 riscv-013.c:397 scan(): 40b - 00000000 @11 -> + 00400c83 @11; 0i
Debug: 1225 84 riscv-013.c:407 scan():  ->  impebreak allrunning anyrunning authenticated version=3
Debug: 1226 85 riscv-013.c:397 scan(): 40b r 00000000 @11 -> + 00400c83 @11; 0i
Debug: 1227 85 riscv-013.c:407 scan():  ->  impebreak allrunning anyrunning authenticated version=3
Debug: 1228 85 riscv-013.c:397 scan(): 40b - 00000000 @11 -> + 00400c83 @11; 0i
Debug: 1229 85 riscv-013.c:407 scan():  ->  impebreak allrunning anyrunning authenticated version=3
Debug: 1230 85 riscv-013.c:397 scan(): 40b r 00000000 @11 -> + 00400c83 @11; 0i
Debug: 1231 85 riscv-013.c:407 scan():  ->  impebreak allrunning anyrunning authenticated version=3
Debug: 1232 85 riscv-013.c:397 scan(): 40b - 00000000 @11 -> + 00400c83 @11; 0i
Debug: 1233 85 riscv-013.c:407 scan():  ->  impebreak allrunning anyrunning authenticated version=3
Debug: 1234 85 riscv-013.c:397 scan(): 40b r 00000000 @11 -> + 00400c83 @11; 0i
Debug: 1235 85 riscv-013.c:407 scan():  ->  impebreak allrunning anyrunning authenticated version=3
Debug: 1236 85 riscv-013.c:397 scan(): 40b - 00000000 @11 -> + 00400c83 @11; 0i
Debug: 1237 85 riscv-013.c:407 scan():  ->  impebreak allrunning anyrunning authenticated version=3
Debug: 1238 86 riscv-013.c:397 scan(): 40b r 00000000 @11 -> + 00400c83 @11; 0i
Debug: 1239 86 riscv-013.c:407 scan():  ->  impebreak allrunning anyrunning authenticated version=3
Debug: 1240 86 riscv-013.c:397 scan(): 40b - 00000000 @11 -> + 00400c83 @11; 0i
Debug: 1241 86 riscv-013.c:407 scan():  ->  impebreak allrunning anyrunning authenticated version=3
Debug: 1242 86 riscv-013.c:397 scan(): 40b r 00000000 @11 -> + 00400c83 @11; 0i
Debug: 1243 86 riscv-013.c:407 scan():  ->  impebreak allrunning anyrunning authenticated version=3
Debug: 1244 86 riscv-013.c:397 scan(): 40b - 00000000 @11 -> + 00400c83 @11; 0i
Debug: 1245 86 riscv-013.c:407 scan():  ->  impebreak allrunning anyrunning authenticated version=3
Debug: 1246 86 riscv-013.c:397 scan(): 40b r 00000000 @11 -> + 00400c83 @11; 0i
Debug: 1247 86 riscv-013.c:407 scan():  ->  impebreak allrunning anyrunning authenticated version=3
Debug: 1248 86 riscv-013.c:397 scan(): 40b - 00000000 @11 -> + 00400c83 @11; 0i
Debug: 1249 86 riscv-013.c:407 scan():  ->  impebreak allrunning anyrunning authenticated version=3
Debug: 1250 86 riscv-013.c:397 scan(): 40b r 00000000 @11 -> + 00400c83 @11; 0i
Debug: 1251 86 riscv-013.c:407 scan():  ->  impebreak allrunning anyrunning authenticated version=3
Debug: 1252 87 riscv-013.c:397 scan(): 40b - 00000000 @11 -> + 00400c83 @11; 0i
Debug: 1253 87 riscv-013.c:407 scan():  ->  impebreak allrunning anyrunning authenticated version=3
Debug: 1254 87 riscv-013.c:397 scan(): 40b r 00000000 @11 -> + 00400c83 @11; 0i
Debug: 1255 87 riscv-013.c:407 scan():  ->  impebreak allrunning anyrunning authenticated version=3
Debug: 1256 87 riscv-013.c:397 scan(): 40b - 00000000 @11 -> + 00400c83 @11; 0i
Debug: 1257 87 riscv-013.c:407 scan():  ->  impebreak allrunning anyrunning authenticated version=3
Debug: 1258 87 riscv-013.c:397 scan(): 40b r 00000000 @11 -> + 00400c83 @11; 0i
Debug: 1259 87 riscv-013.c:407 scan():  ->  impebreak allrunning anyrunning authenticated version=3
Debug: 1260 87 riscv-013.c:397 scan(): 40b - 00000000 @11 -> + 00400c83 @11; 0i
Debug: 1261 87 riscv-013.c:407 scan():  ->  impebreak allrunning anyrunning authenticated version=3
Debug: 1262 87 riscv-013.c:397 scan(): 40b r 00000000 @11 -> + 00400c83 @11; 0i
Debug: 1263 87 riscv-013.c:407 scan():  ->  impebreak allrunning anyrunning authenticated version=3
Debug: 1264 87 riscv-013.c:397 scan(): 40b - 00000000 @11 -> + 00400c83 @11; 0i
Debug: 1265 87 riscv-013.c:407 scan():  ->  impebreak allrunning anyrunning authenticated version=3
Debug: 1266 88 riscv-013.c:397 scan(): 40b r 00000000 @11 -> + 00400c83 @11; 0i
Debug: 1267 88 riscv-013.c:407 scan():  ->  impebreak allrunning anyrunning authenticated version=3
Debug: 1268 88 riscv-013.c:397 scan(): 40b - 00000000 @11 -> + 00400c83 @11; 0i
Debug: 1269 88 riscv-013.c:407 scan():  ->  impebreak allrunning anyrunning authenticated version=3
Debug: 1270 88 riscv-013.c:397 scan(): 40b r 00000000 @11 -> + 00400c83 @11; 0i
Debug: 1271 88 riscv-013.c:407 scan():  ->  impebreak allrunning anyrunning authenticated version=3
Debug: 1272 88 riscv-013.c:397 scan(): 40b - 00000000 @11 -> + 00400c83 @11; 0i
Debug: 1273 88 riscv-013.c:407 scan():  ->  impebreak allrunning anyrunning authenticated version=3
Debug: 1274 88 riscv-013.c:397 scan(): 40b r 00000000 @11 -> + 00400c83 @11; 0i
Debug: 1275 88 riscv-013.c:407 scan():  ->  impebreak allrunning anyrunning authenticated version=3
Debug: 1276 88 riscv-013.c:397 scan(): 40b - 00000000 @11 -> + 00400c83 @11; 0i
Debug: 1277 88 riscv-013.c:407 scan():  ->  impebreak allrunning anyrunning authenticated version=3
Debug: 1278 89 riscv-013.c:397 scan(): 40b r 00000000 @11 -> + 00400c83 @11; 0i
Debug: 1279 89 riscv-013.c:407 scan():  ->  impebreak allrunning anyrunning authenticated version=3
Debug: 1280 89 riscv-013.c:397 scan(): 40b - 00000000 @11 -> + 00400c83 @11; 0i
Debug: 1281 89 riscv-013.c:407 scan():  ->  impebreak allrunning anyrunning authenticated version=3
Debug: 1282 89 riscv-013.c:397 scan(): 40b r 00000000 @11 -> + 00400c83 @11; 0i
Debug: 1283 89 riscv-013.c:407 scan():  ->  impebreak allrunning anyrunning authenticated version=3
Debug: 1284 89 riscv-013.c:397 scan(): 40b - 00000000 @11 -> + 00400c83 @11; 0i
Debug: 1285 89 riscv-013.c:407 scan():  ->  impebreak allrunning anyrunning authenticated version=3
Debug: 1286 89 riscv-013.c:397 scan(): 40b r 00000000 @11 -> + 00400c83 @11; 0i
Debug: 1287 89 riscv-013.c:407 scan():  ->  impebreak allrunning anyrunning authenticated version=3
Debug: 1288 89 riscv-013.c:397 scan(): 40b - 00000000 @11 -> + 00400c83 @11; 0i
Debug: 1289 89 riscv-013.c:407 scan():  ->  impebreak allrunning anyrunning authenticated version=3
Debug: 1290 90 riscv-013.c:397 scan(): 40b r 00000000 @11 -> + 00400c83 @11; 0i
Debug: 1291 90 riscv-013.c:407 scan():  ->  impebreak allrunning anyrunning authenticated version=3
Debug: 1292 90 riscv-013.c:397 scan(): 40b - 00000000 @11 -> + 00400c83 @11; 0i
Debug: 1293 90 riscv-013.c:407 scan():  ->  impebreak allrunning anyrunning authenticated version=3
Debug: 1294 90 riscv-013.c:397 scan(): 40b r 00000000 @11 -> + 00400c83 @11; 0i
Debug: 1295 90 riscv-013.c:407 scan():  ->  impebreak allrunning anyrunning authenticated version=3
Debug: 1296 90 riscv-013.c:397 scan(): 40b - 00000000 @11 -> + 00400c83 @11; 0i
Debug: 1297 90 riscv-013.c:407 scan():  ->  impebreak allrunning anyrunning authenticated version=3
Debug: 1298 90 riscv-013.c:397 scan(): 40b r 00000000 @11 -> + 00400c83 @11; 0i
Debug: 1299 90 riscv-013.c:407 scan():  ->  impebreak allrunning anyrunning authenticated version=3
Debug: 1300 90 riscv-013.c:397 scan(): 40b - 00000000 @11 -> + 00400c83 @11; 0i
Debug: 1301 90 riscv-013.c:407 scan():  ->  impebreak allrunning anyrunning authenticated version=3
Debug: 1302 91 riscv-013.c:397 scan(): 40b r 00000000 @11 -> + 00400c83 @11; 0i
Debug: 1303 91 riscv-013.c:407 scan():  ->  impebreak allrunning anyrunning authenticated version=3
Debug: 1304 91 riscv-013.c:397 scan(): 40b - 00000000 @11 -> + 00400c83 @11; 0i
Debug: 1305 91 riscv-013.c:407 scan():  ->  impebreak allrunning anyrunning authenticated version=3
Debug: 1306 91 riscv-013.c:397 scan(): 40b r 00000000 @11 -> + 00400c83 @11; 0i
Debug: 1307 91 riscv-013.c:407 scan():  ->  impebreak allrunning anyrunning authenticated version=3
Debug: 1308 91 riscv-013.c:397 scan(): 40b - 00000000 @11 -> + 00400c83 @11; 0i
Debug: 1309 91 riscv-013.c:407 scan():  ->  impebreak allrunning anyrunning authenticated version=3
Debug: 1310 91 riscv-013.c:397 scan(): 40b r 00000000 @11 -> + 00400c83 @11; 0i
Debug: 1311 91 riscv-013.c:407 scan():  ->  impebreak allrunning anyrunning authenticated version=3
Debug: 1312 91 riscv-013.c:397 scan(): 40b - 00000000 @11 -> + 00400c83 @11; 0i
Debug: 1313 91 riscv-013.c:407 scan():  ->  impebreak allrunning anyrunning authenticated version=3
Debug: 1314 92 riscv-013.c:397 scan(): 40b r 00000000 @11 -> + 00400c83 @11; 0i
Debug: 1315 92 riscv-013.c:407 scan():  ->  impebreak allrunning anyrunning authenticated version=3
Debug: 1316 92 riscv-013.c:397 scan(): 40b - 00000000 @11 -> + 00400c83 @11; 0i
Debug: 1317 92 riscv-013.c:407 scan():  ->  impebreak allrunning anyrunning authenticated version=3
Debug: 1318 92 riscv-013.c:397 scan(): 40b r 00000000 @11 -> + 00400c83 @11; 0i
Debug: 1319 92 riscv-013.c:407 scan():  ->  impebreak allrunning anyrunning authenticated version=3
Debug: 1320 92 riscv-013.c:397 scan(): 40b - 00000000 @11 -> + 00400c83 @11; 0i
Debug: 1321 92 riscv-013.c:407 scan():  ->  impebreak allrunning anyrunning authenticated version=3
Debug: 1322 92 riscv-013.c:397 scan(): 40b r 00000000 @11 -> + 00400c83 @11; 0i
Debug: 1323 92 riscv-013.c:407 scan():  ->  impebreak allrunning anyrunning authenticated version=3
Debug: 1324 92 riscv-013.c:397 scan(): 40b - 00000000 @11 -> + 00400c83 @11; 0i
Debug: 1325 92 riscv-013.c:407 scan():  ->  impebreak allrunning anyrunning authenticated version=3
Debug: 1326 92 riscv-013.c:397 scan(): 40b r 00000000 @11 -> + 00400c83 @11; 0i
Debug: 1327 92 riscv-013.c:407 scan():  ->  impebreak allrunning anyrunning authenticated version=3
Debug: 1328 93 riscv-013.c:397 scan(): 40b - 00000000 @11 -> + 00430c83 @11; 0i
Debug: 1329 93 riscv-013.c:407 scan():  ->  impebreak allresumeack anyresumeack allrunning anyrunning authenticated version=3
Debug: 1330 93 riscv-013.c:397 scan(): 40b w 00000001 @10 -> + 00430c83 @11; 0i
Debug: 1331 93 riscv-013.c:407 scan():  dmactive ->  impebreak allresumeack anyresumeack allrunning anyrunning authenticated version=3
Debug: 1332 93 riscv-013.c:397 scan(): 40b - 00000000 @10 -> + 00430c83 @10; 0i
Debug: 1333 93 riscv-013.c:407 scan():  ->  hartselhi=50 hartsello=67 ndmreset dmactive
Debug: 1334 93 target.c:3066 handle_target(): [serv.cpu.0] target_poll() -> 0, next attempt in 100ms
Debug: 1335 93 command.c:155 script_debug(): command - halt
Debug: 1336 93 target.c:3300 handle_halt_command(): -
Debug: 1337 93 riscv.c:1686 riscv_halt(): [serv.cpu.0] halting all harts
Debug: 1338 93 riscv.c:1622 halt_prep(): [serv.cpu.0] prep hart, debug_reason=5
Debug: 1339 93 riscv-013.c:397 scan(): 40b r 00000000 @11 -> + 00430c83 @10; 0i
Debug: 1340 93 riscv-013.c:407 scan():  ->  hartselhi=50 hartsello=67 ndmreset dmactive
Debug: 1341 93 riscv-013.c:397 scan(): 40b - 00000000 @11 -> + 00400c83 @11; 0i
Debug: 1342 93 riscv-013.c:407 scan():  ->  impebreak allrunning anyrunning authenticated version=3
Debug: 1343 93 riscv-013.c:4668 riscv013_halt_go(): [serv.cpu.0] halting hart
Debug: 1344 93 riscv-013.c:397 scan(): 40b w 80000001 @10 -> + 00400c83 @11; 0i
Debug: 1345 93 riscv-013.c:407 scan(): haltreq dmactive ->  impebreak allrunning anyrunning authenticated version=3
Debug: 1346 93 riscv-013.c:397 scan(): 40b - 00000000 @10 -> + 00400c83 @10; 0i
Debug: 1347 93 riscv-013.c:407 scan():  ->  hartselhi=50 hartsello=64 ndmreset dmactive
Debug: 1348 94 riscv-013.c:397 scan(): 40b r 00000000 @11 -> + 00400c83 @10; 0i
Debug: 1349 94 riscv-013.c:407 scan():  ->  hartselhi=50 hartsello=64 ndmreset dmactive
Debug: 1350 94 riscv-013.c:397 scan(): 40b - 00000000 @11 -> + 00400383 @11; 0i
Debug: 1351 94 riscv-013.c:407 scan():  ->  impebreak allhalted anyhalted authenticated version=3
Debug: 1352 94 riscv-013.c:397 scan(): 40b w 00000001 @10 -> + 00400383 @11; 0i
Debug: 1353 94 riscv-013.c:407 scan():  dmactive ->  impebreak allhalted anyhalted authenticated version=3
Debug: 1354 94 riscv-013.c:397 scan(): 40b - 00000000 @10 -> + 00400383 @10; 0i
Debug: 1355 94 riscv-013.c:407 scan():  ->  hartselhi=14 hartsello=64 ndmreset dmactive
Debug: 1356 94 riscv.c:4642 riscv_invalidate_register_cache(): [serv.cpu.0] Invalidating register cache.
Debug: 1357 94 target.c:1847 target_call_event_callbacks(): target event 0 (gdb-halt) for core serv.cpu.0
Debug: 1358 94 target.c:1847 target_call_event_callbacks(): target event 1 (halted) for core serv.cpu.0
Debug: 1359 94 riscv.c:2898 riscv_openocd_poll(): [serv.cpu.0] Polling all harts.
Debug: 1360 94 riscv.c:2721 riscv_poll_hart(): [serv.cpu.0] polling, target->state=2
Debug: 1361 94 riscv-013.c:397 scan(): 40b r 00000000 @11 -> + 00400383 @10; 0i
Debug: 1362 94 riscv-013.c:407 scan():  ->  hartselhi=14 hartsello=64 ndmreset dmactive
Debug: 1363 94 riscv-013.c:397 scan(): 40b - 00000000 @11 -> + 00400383 @11; 0i
Debug: 1364 94 riscv-013.c:407 scan():  ->  impebreak allhalted anyhalted authenticated version=3
Debug: 1365 94 riscv.c:2954 riscv_openocd_poll(): [serv.cpu.0] should_remain_halted=0, should_resume=0
Debug: 1366 94 command.c:155 script_debug(): command - echo Target HALTED.
User : 1367 94 command.c:685 handle_echo(): Target HALTED.
Debug: 1368 94 command.c:155 script_debug(): command - echo Ready for remote connections.
User : 1369 94 command.c:685 handle_echo(): Ready for remote connections.
Info : 1370 94 server.c:297 add_service(): Listening on port 6666 for tcl connections
Info : 1371 94 server.c:297 add_service(): Listening on port 4444 for telnet connections
Debug: 1372 94 command.c:155 script_debug(): command - init
Debug: 1373 167 riscv.c:2898 riscv_openocd_poll(): [serv.cpu.0] Polling all harts.
Debug: 1374 167 riscv.c:2721 riscv_poll_hart(): [serv.cpu.0] polling, target->state=2
Debug: 1375 167 riscv-013.c:397 scan(): 40b r 00000000 @11 -> + 00400383 @11; 0i
Debug: 1376 167 riscv-013.c:407 scan():  ->  impebreak allhalted anyhalted authenticated version=3
Debug: 1377 167 riscv-013.c:397 scan(): 40b - 00000000 @11 -> + 00400383 @11; 0i
Debug: 1378 167 riscv-013.c:407 scan():  ->  impebreak allhalted anyhalted authenticated version=3
Debug: 1379 167 riscv.c:2954 riscv_openocd_poll(): [serv.cpu.0] should_remain_halted=0, should_resume=0
Debug: 1380 167 target.c:3066 handle_target(): [serv.cpu.0] target_poll() -> 0, next attempt in 100ms
Debug: 1381 267 riscv.c:2898 riscv_openocd_poll(): [serv.cpu.0] Polling all harts.
Debug: 1382 267 riscv.c:2721 riscv_poll_hart(): [serv.cpu.0] polling, target->state=2
Debug: 1383 268 riscv-013.c:397 scan(): 40b r 00000000 @11 -> + 00400383 @11; 0i
Debug: 1384 268 riscv-013.c:407 scan():  ->  impebreak allhalted anyhalted authenticated version=3
Debug: 1385 268 riscv-013.c:397 scan(): 40b - 00000000 @11 -> + 00400383 @11; 0i
Debug: 1386 268 riscv-013.c:407 scan():  ->  impebreak allhalted anyhalted authenticated version=3
Debug: 1387 268 riscv.c:1557 riscv_flush_registers(): [serv.cpu.0] Flushing register cache
Debug: 1388 268 riscv.c:1575 riscv_flush_registers(): [serv.cpu.0] Flush of register cache completed
Debug: 1389 268 riscv.c:2954 riscv_openocd_poll(): [serv.cpu.0] should_remain_halted=0, should_resume=0
Debug: 1390 268 target.c:3066 handle_target(): [serv.cpu.0] target_poll() -> 0, next attempt in 100ms
Debug: 1391 367 riscv.c:2898 riscv_openocd_poll(): [serv.cpu.0] Polling all harts.
Debug: 1392 367 riscv.c:2721 riscv_poll_hart(): [serv.cpu.0] polling, target->state=2
Debug: 1393 367 riscv-013.c:397 scan(): 40b r 00000000 @11 -> + 00400383 @11; 0i
Debug: 1394 367 riscv-013.c:407 scan():  ->  impebreak allhalted anyhalted authenticated version=3
Debug: 1395 367 riscv-013.c:397 scan(): 40b - 00000000 @11 -> + 00400383 @11; 0i
Debug: 1396 367 riscv-013.c:407 scan():  ->  impebreak allhalted anyhalted authenticated version=3
Debug: 1397 367 riscv.c:1557 riscv_flush_registers(): [serv.cpu.0] Flushing register cache
Debug: 1398 367 riscv.c:1575 riscv_flush_registers(): [serv.cpu.0] Flush of register cache completed
Debug: 1399 367 riscv.c:2954 riscv_openocd_poll(): [serv.cpu.0] should_remain_halted=0, should_resume=0
Debug: 1400 367 target.c:3066 handle_target(): [serv.cpu.0] target_poll() -> 0, next attempt in 100ms
Debug: 1401 468 riscv.c:2898 riscv_openocd_poll(): [serv.cpu.0] Polling all harts.
Debug: 1402 468 riscv.c:2721 riscv_poll_hart(): [serv.cpu.0] polling, target->state=2
Debug: 1403 468 riscv-013.c:397 scan(): 40b r 00000000 @11 -> + 00400383 @11; 0i
Debug: 1404 468 riscv-013.c:407 scan():  ->  impebreak allhalted anyhalted authenticated version=3
Debug: 1405 468 riscv-013.c:397 scan(): 40b - 00000000 @11 -> + 00400383 @11; 0i
Debug: 1406 468 riscv-013.c:407 scan():  ->  impebreak allhalted anyhalted authenticated version=3
Debug: 1407 468 riscv.c:1557 riscv_flush_registers(): [serv.cpu.0] Flushing register cache
Debug: 1408 468 riscv.c:1575 riscv_flush_registers(): [serv.cpu.0] Flush of register cache completed
Debug: 1409 468 riscv.c:2954 riscv_openocd_poll(): [serv.cpu.0] should_remain_halted=0, should_resume=0
Debug: 1410 468 target.c:3066 handle_target(): [serv.cpu.0] target_poll() -> 0, next attempt in 100ms
Debug: 1411 568 riscv.c:2898 riscv_openocd_poll(): [serv.cpu.0] Polling all harts.
Debug: 1412 569 riscv.c:2721 riscv_poll_hart(): [serv.cpu.0] polling, target->state=2
Debug: 1413 569 riscv-013.c:397 scan(): 40b r 00000000 @11 -> + 00400383 @11; 0i
Debug: 1414 569 riscv-013.c:407 scan():  ->  impebreak allhalted anyhalted authenticated version=3
Debug: 1415 569 riscv-013.c:397 scan(): 40b - 00000000 @11 -> + 00400383 @11; 0i
Debug: 1416 569 riscv-013.c:407 scan():  ->  impebreak allhalted anyhalted authenticated version=3
Debug: 1417 569 riscv.c:1557 riscv_flush_registers(): [serv.cpu.0] Flushing register cache
Debug: 1418 569 riscv.c:1575 riscv_flush_registers(): [serv.cpu.0] Flush of register cache completed
Debug: 1419 569 riscv.c:2954 riscv_openocd_poll(): [serv.cpu.0] should_remain_halted=0, should_resume=0
Debug: 1420 569 target.c:3066 handle_target(): [serv.cpu.0] target_poll() -> 0, next attempt in 100ms
Debug: 1421 668 riscv.c:2898 riscv_openocd_poll(): [serv.cpu.0] Polling all harts.
Debug: 1422 668 riscv.c:2721 riscv_poll_hart(): [serv.cpu.0] polling, target->state=2
Debug: 1423 669 riscv-013.c:397 scan(): 40b r 00000000 @11 -> + 00400383 @11; 0i
Debug: 1424 669 riscv-013.c:407 scan():  ->  impebreak allhalted anyhalted authenticated version=3
Debug: 1425 669 riscv-013.c:397 scan(): 40b - 00000000 @11 -> + 00400383 @11; 0i
Debug: 1426 669 riscv-013.c:407 scan():  ->  impebreak allhalted anyhalted authenticated version=3
Debug: 1427 669 riscv.c:1557 riscv_flush_registers(): [serv.cpu.0] Flushing register cache
Debug: 1428 669 riscv.c:1575 riscv_flush_registers(): [serv.cpu.0] Flush of register cache completed
Debug: 1429 669 riscv.c:2954 riscv_openocd_poll(): [serv.cpu.0] should_remain_halted=0, should_resume=0
Debug: 1430 669 target.c:3066 handle_target(): [serv.cpu.0] target_poll() -> 0, next attempt in 100ms
Debug: 1431 768 riscv.c:2898 riscv_openocd_poll(): [serv.cpu.0] Polling all harts.
Debug: 1432 769 riscv.c:2721 riscv_poll_hart(): [serv.cpu.0] polling, target->state=2
Debug: 1433 769 riscv-013.c:397 scan(): 40b r 00000000 @11 -> + 00400383 @11; 0i
